!Created with skrf (http://scikit-rf.org).
# MHz S RI R 50.0 
!freq ReS11 ImS11 ReS21 ImS21 ReS12 ImS12 ReS22 ImS22
3400.0 -0.09631514549255371 -0.4753701090812683 -0.026128685101866722 -0.11365590244531631 0.0 0.0 1.0 0.0
3401.0 -0.1144004613161087 -0.47047939896583557 -0.0340363010764122 -0.11785378307104111 0.0 0.0 1.0 0.0
3402.0 -0.14751343429088593 -0.45688480138778687 -0.04139067977666855 -0.12227079272270203 0.0 0.0 1.0 0.0
3403.0 -0.17158007621765137 -0.430742084980011 -0.05247076228260994 -0.12307468056678772 0.0 0.0 1.0 0.0
3404.0 -0.2068714052438736 -0.4128326177597046 -0.06273540109395981 -0.12454462051391602 0.0 0.0 1.0 0.0
3405.0 -0.22719760239124298 -0.3937840759754181 -0.07443725317716599 -0.1264672577381134 0.0 0.0 1.0 0.0
3406.0 -0.24266955256462097 -0.3635964095592499 -0.08464892208576202 -0.12718474864959717 0.0 0.0 1.0 0.0
3407.0 -0.26531386375427246 -0.33428531885147095 -0.09614074975252151 -0.12859122455120087 0.0 0.0 1.0 0.0
3408.0 -0.2777688503265381 -0.3023870587348938 -0.11313850432634354 -0.1258031278848648 0.0 0.0 1.0 0.0
3409.0 -0.28890782594680786 -0.2672581672668457 -0.12841187417507172 -0.12074831128120422 0.0 0.0 1.0 0.0
3410.0 -0.291825532913208 -0.23034091293811798 -0.14362825453281403 -0.11560565233230591 0.0 0.0 1.0 0.0
3411.0 -0.29242080450057983 -0.1958838701248169 -0.1588512808084488 -0.10742659866809845 0.0 0.0 1.0 0.0
3412.0 -0.27785736322402954 -0.15618321299552917 -0.17298677563667297 -0.09766465425491333 0.0 0.0 1.0 0.0
3413.0 -0.2631036043167114 -0.11744114756584167 -0.19014276564121246 -0.0813891664147377 0.0 0.0 1.0 0.0
3414.0 -0.24292464554309845 -0.08655524253845215 -0.20727196335792542 -0.06312032788991928 0.0 0.0 1.0 0.0
3415.0 -0.2054571956396103 -0.05917744338512421 -0.2173212319612503 -0.04447734355926514 0.0 0.0 1.0 0.0
3416.0 -0.16886219382286072 -0.04275405406951904 -0.2253502756357193 -0.02172892540693283 0.0 0.0 1.0 0.0
3417.0 -0.1206885576248169 -0.03116758167743683 -0.2315024882555008 0.0028438670560717583 0.0 0.0 1.0 0.0
3418.0 -0.08034253120422363 -0.03653468191623688 -0.2325267642736435 0.030897248536348343 0.0 0.0 1.0 0.0
3419.0 -0.03959879279136658 -0.04669925570487976 -0.2264307588338852 0.05653448775410652 0.0 0.0 1.0 0.0
3420.0 -0.0028239786624908447 -0.06666330993175507 -0.2163611352443695 0.07789699733257294 0.0 0.0 1.0 0.0
3421.0 0.028164029121398926 -0.09519150853157043 -0.20565031468868256 0.10051229596138 0.0 0.0 1.0 0.0
3422.0 0.05267292261123657 -0.1344783455133438 -0.19009791314601898 0.12269606441259384 0.0 0.0 1.0 0.0
3423.0 0.0632781982421875 -0.1694037914276123 -0.1730709671974182 0.13508225977420807 0.0 0.0 1.0 0.0
3424.0 0.06606140732765198 -0.21461351215839386 -0.1538999080657959 0.14978206157684326 0.0 0.0 1.0 0.0
3425.0 0.05897635221481323 -0.24500055611133575 -0.13501761853694916 0.1552620530128479 0.0 0.0 1.0 0.0
3426.0 0.04433709383010864 -0.2783898115158081 -0.11688728630542755 0.16137391328811646 0.0 0.0 1.0 0.0
3427.0 0.02582278847694397 -0.31369441747665405 -0.09622932970523834 0.16525539755821228 0.0 0.0 1.0 0.0
3428.0 0.016846448183059692 -0.3432413339614868 -0.08355635404586792 0.1662408858537674 0.0 0.0 1.0 0.0
3429.0 -0.007634341716766357 -0.35825490951538086 -0.06924688816070557 0.1654500663280487 0.0 0.0 1.0 0.0
3430.0 -0.02500954270362854 -0.3732605278491974 -0.05612261965870857 0.1614581197500229 0.0 0.0 1.0 0.0
3431.0 -0.05033746361732483 -0.39299750328063965 -0.04455339536070824 0.1594906449317932 0.0 0.0 1.0 0.0
3432.0 -0.07859668135643005 -0.40352022647857666 -0.033717744052410126 0.15603137016296387 0.0 0.0 1.0 0.0
3433.0 -0.10339677333831787 -0.41013920307159424 -0.024673283100128174 0.15219107270240784 0.0 0.0 1.0 0.0
3434.0 -0.12865695357322693 -0.4125237464904785 -0.014364218339323997 0.1471354067325592 0.0 0.0 1.0 0.0
3435.0 -0.15107329189777374 -0.4145137667655945 -0.005009151063859463 0.14243438839912415 0.0 0.0 1.0 0.0
3436.0 -0.17093007266521454 -0.41443660855293274 -0.0020801248028874397 0.13946644961833954 0.0 0.0 1.0 0.0
3437.0 -0.19763928651809692 -0.4083903431892395 0.003917592577636242 0.13390688598155975 0.0 0.0 1.0 0.0
3438.0 -0.2254060059785843 -0.40935200452804565 0.014422150328755379 0.1298316866159439 0.0 0.0 1.0 0.0
3439.0 -0.2422553300857544 -0.39512795209884644 0.018935030326247215 0.12396571040153503 0.0 0.0 1.0 0.0
3440.0 -0.2617948651313782 -0.3921620845794678 0.02155274897813797 0.1195012554526329 0.0 0.0 1.0 0.0
3441.0 -0.28517961502075195 -0.38432368636131287 0.026517659425735474 0.1157333254814148 0.0 0.0 1.0 0.0
3442.0 -0.3028033971786499 -0.3773445785045624 0.03136751428246498 0.11245229095220566 0.0 0.0 1.0 0.0
3443.0 -0.31339824199676514 -0.3687744438648224 0.03287983313202858 0.10878193378448486 0.0 0.0 1.0 0.0
3444.0 -0.3323550820350647 -0.3588893413543701 0.03623059764504433 0.1045757532119751 0.0 0.0 1.0 0.0
3445.0 -0.3445645272731781 -0.34118950366973877 0.039018213748931885 0.0990690216422081 0.0 0.0 1.0 0.0
3446.0 -0.3580513000488281 -0.3349275588989258 0.04131178930401802 0.09797737747430801 0.0 0.0 1.0 0.0
3447.0 -0.36526501178741455 -0.3243866562843323 0.04571782052516937 0.10033532232046127 0.0 0.0 1.0 0.0
3448.0 -0.3847913444042206 -0.3134555220603943 0.048986759036779404 0.09595678001642227 0.0 0.0 1.0 0.0
3449.0 -0.3938395082950592 -0.29765915870666504 0.04922481253743172 0.08722187578678131 0.0 0.0 1.0 0.0
3450.0 -0.41101643443107605 -0.2818296551704407 0.05441372096538544 0.08858088403940201 0.0 0.0 1.0 0.0
3451.0 -0.4099813401699066 -0.2676512897014618 0.053488899022340775 0.08536199480295181 0.0 0.0 1.0 0.0
3452.0 -0.424769788980484 -0.2549784183502197 0.05593829229474068 0.08245217055082321 0.0 0.0 1.0 0.0
3453.0 -0.4250394403934479 -0.24029606580734253 0.05494778975844383 0.07413318008184433 0.0 0.0 1.0 0.0
3454.0 -0.43664270639419556 -0.22750747203826904 0.06003705412149429 0.07534155994653702 0.0 0.0 1.0 0.0
3455.0 -0.44211360812187195 -0.21589311957359314 0.060604121536016464 0.07410271465778351 0.0 0.0 1.0 0.0
3456.0 -0.4488673508167267 -0.20215588808059692 0.059519581496715546 0.06637030094861984 0.0 0.0 1.0 0.0
3457.0 -0.45418697595596313 -0.1871897280216217 0.0627283900976181 0.06853801757097244 0.0 0.0 1.0 0.0
3458.0 -0.4595932960510254 -0.16994570195674896 0.06377653032541275 0.0653039813041687 0.0 0.0 1.0 0.0
3459.0 -0.46095725893974304 -0.15531277656555176 0.06500516831874847 0.063264399766922 0.0 0.0 1.0 0.0
3460.0 -0.46321606636047363 -0.14464148879051208 0.06448055058717728 0.05694051831960678 0.0 0.0 1.0 0.0
3461.0 -0.4723009467124939 -0.13423842191696167 0.06502584367990494 0.055908385664224625 0.0 0.0 1.0 0.0
3462.0 -0.47379207611083984 -0.11614173650741577 0.06712791323661804 0.051896385848522186 0.0 0.0 1.0 0.0
3463.0 -0.47708606719970703 -0.10164718329906464 0.07074850797653198 0.05316735431551933 0.0 0.0 1.0 0.0
3464.0 -0.4747631251811981 -0.08839079737663269 0.06836206465959549 0.047651566565036774 0.0 0.0 1.0 0.0
3465.0 -0.4743803143501282 -0.06696814298629761 0.07082246243953705 0.04492257907986641 0.0 0.0 1.0 0.0
3466.0 -0.4739399552345276 -0.05699962377548218 0.07080645114183426 0.04330272972583771 0.0 0.0 1.0 0.0
3467.0 -0.47951969504356384 -0.04159127175807953 0.07259729504585266 0.04075232893228531 0.0 0.0 1.0 0.0
3468.0 -0.4782274067401886 -0.03095085918903351 0.07454263418912888 0.03849203139543533 0.0 0.0 1.0 0.0
3469.0 -0.47670069336891174 -0.01957780122756958 0.07432173192501068 0.03595701977610588 0.0 0.0 1.0 0.0
3470.0 -0.4662425220012665 -0.0053117722272872925 0.07478952407836914 0.035304684191942215 0.0 0.0 1.0 0.0
3471.0 -0.46796518564224243 0.012232720851898193 0.07580986618995667 0.03071371279656887 0.0 0.0 1.0 0.0
3472.0 -0.4665341079235077 0.022858768701553345 0.07722970843315125 0.027983123436570168 0.0 0.0 1.0 0.0
3473.0 -0.4619255065917969 0.03349973261356354 0.0792006328701973 0.026908040046691895 0.0 0.0 1.0 0.0
3474.0 -0.4565514326095581 0.046502918004989624 0.07908876240253448 0.023860037326812744 0.0 0.0 1.0 0.0
3475.0 -0.45062312483787537 0.0551660880446434 0.08058027923107147 0.021513139829039574 0.0 0.0 1.0 0.0
3476.0 -0.44811928272247314 0.07056751102209091 0.08118542283773422 0.020014062523841858 0.0 0.0 1.0 0.0
3477.0 -0.4412832260131836 0.08228566497564316 0.08239538967609406 0.01627185195684433 0.0 0.0 1.0 0.0
3478.0 -0.43728506565093994 0.09398774057626724 0.08354907482862473 0.013276522047817707 0.0 0.0 1.0 0.0
3479.0 -0.426666796207428 0.10638987272977829 0.08320774137973785 0.010812951251864433 0.0 0.0 1.0 0.0
3480.0 -0.41967344284057617 0.11212772876024246 0.08506973832845688 0.008661603555083275 0.0 0.0 1.0 0.0
3481.0 -0.41384148597717285 0.1255648285150528 0.08496278524398804 0.004827515222132206 0.0 0.0 1.0 0.0
3482.0 -0.40698084235191345 0.13600148260593414 0.08573500066995621 0.002089635469019413 0.0 0.0 1.0 0.0
3483.0 -0.39957159757614136 0.14264322817325592 0.08544016629457474 -0.001739243045449257 0.0 0.0 1.0 0.0
3484.0 -0.38886821269989014 0.15413059294223785 0.086116723716259 -0.0061872126534581184 0.0 0.0 1.0 0.0
3485.0 -0.3807816207408905 0.16327348351478577 0.08601348102092743 -0.008294043131172657 0.0 0.0 1.0 0.0
3486.0 -0.37644162774086 0.16950958967208862 0.08585379272699356 -0.01105573307722807 0.0 0.0 1.0 0.0
3487.0 -0.3610280156135559 0.17832091450691223 0.08612023293972015 -0.013858476653695107 0.0 0.0 1.0 0.0
3488.0 -0.353088915348053 0.1873757690191269 0.08520466089248657 -0.017963003367185593 0.0 0.0 1.0 0.0
3489.0 -0.3466019332408905 0.19107817113399506 0.08573806285858154 -0.02120094560086727 0.0 0.0 1.0 0.0
3490.0 -0.3373907208442688 0.19762378931045532 0.08515041321516037 -0.024024030193686485 0.0 0.0 1.0 0.0
3491.0 -0.32663780450820923 0.19913335144519806 0.08428006619215012 -0.02825816534459591 0.0 0.0 1.0 0.0
3492.0 -0.3164267838001251 0.20675431191921234 0.0837436318397522 -0.03132784739136696 0.0 0.0 1.0 0.0
3493.0 -0.3072587251663208 0.21334856748580933 0.08214125782251358 -0.034944064915180206 0.0 0.0 1.0 0.0
3494.0 -0.2981027066707611 0.2179635465145111 0.08090390264987946 -0.038554467260837555 0.0 0.0 1.0 0.0
3495.0 -0.2904073894023895 0.22048592567443848 0.0795077532529831 -0.04211027920246124 0.0 0.0 1.0 0.0
3496.0 -0.27838796377182007 0.21890193223953247 0.07805390655994415 -0.04645493999123573 0.0 0.0 1.0 0.0
3497.0 -0.2696708142757416 0.22504334151744843 0.0756995752453804 -0.04943503066897392 0.0 0.0 1.0 0.0
3498.0 -0.2601032257080078 0.22579330205917358 0.07401368021965027 -0.05319446325302124 0.0 0.0 1.0 0.0
3499.0 -0.2540515065193176 0.22906014323234558 0.07151829451322556 -0.05580240115523338 0.0 0.0 1.0 0.0
3500.0 -0.24529004096984863 0.22883307933807373 0.06984966993331909 -0.05794079229235649 0.0 0.0 1.0 0.0
