!Created with skrf (http://scikit-rf.org).
# MHz S RI R 50.0 
!freq ReS11 ImS11 ReS21 ImS21 ReS12 ImS12 ReS22 ImS22
3400.0 -0.09389951825141907 -0.4802559018135071 -0.02706756256520748 -0.11505643278360367 0.0 0.0 1.0 0.0
3401.0 -0.1289067566394806 -0.4705016016960144 -0.03543037548661232 -0.11818806827068329 0.0 0.0 1.0 0.0
3402.0 -0.144784614443779 -0.45488494634628296 -0.0423518642783165 -0.1219123899936676 0.0 0.0 1.0 0.0
3403.0 -0.17715975642204285 -0.4307402968406677 -0.05136149749159813 -0.12256084382534027 0.0 0.0 1.0 0.0
3404.0 -0.1991645246744156 -0.41160818934440613 -0.06170200929045677 -0.12551991641521454 0.0 0.0 1.0 0.0
3405.0 -0.2276439070701599 -0.3883870542049408 -0.07330971211194992 -0.12534667551517487 0.0 0.0 1.0 0.0
3406.0 -0.2484588623046875 -0.3658497929573059 -0.08455217629671097 -0.12796689569950104 0.0 0.0 1.0 0.0
3407.0 -0.2631547749042511 -0.334470272064209 -0.09547609835863113 -0.12816672027111053 0.0 0.0 1.0 0.0
3408.0 -0.2755391001701355 -0.3033972680568695 -0.11238612234592438 -0.12679849565029144 0.0 0.0 1.0 0.0
3409.0 -0.2912123501300812 -0.2661984860897064 -0.12865914404392242 -0.12123551964759827 0.0 0.0 1.0 0.0
3410.0 -0.29248565435409546 -0.23032012581825256 -0.1425096094608307 -0.11601114273071289 0.0 0.0 1.0 0.0
3411.0 -0.2856628894805908 -0.19291971623897552 -0.15752337872982025 -0.1107606440782547 0.0 0.0 1.0 0.0
3412.0 -0.2774232029914856 -0.1570305973291397 -0.17507188022136688 -0.09949890524148941 0.0 0.0 1.0 0.0
3413.0 -0.26129376888275146 -0.11663778126239777 -0.1914629191160202 -0.07859067618846893 0.0 0.0 1.0 0.0
3414.0 -0.2404758483171463 -0.08434486389160156 -0.20454546809196472 -0.06617617607116699 0.0 0.0 1.0 0.0
3415.0 -0.2023354172706604 -0.060413435101509094 -0.21778854727745056 -0.046614352613687515 0.0 0.0 1.0 0.0
3416.0 -0.16563571989536285 -0.044482022523880005 -0.22503319382667542 -0.02281636744737625 0.0 0.0 1.0 0.0
3417.0 -0.12462206184864044 -0.03273537755012512 -0.22950606048107147 0.005448502488434315 0.0 0.0 1.0 0.0
3418.0 -0.08236634731292725 -0.03653371334075928 -0.2292010635137558 0.03286249190568924 0.0 0.0 1.0 0.0
3419.0 -0.03670632839202881 -0.04025666415691376 -0.22662107646465302 0.05250082537531853 0.0 0.0 1.0 0.0
3420.0 -0.0050210654735565186 -0.07085549831390381 -0.2167549878358841 0.07851357758045197 0.0 0.0 1.0 0.0
3421.0 0.030189216136932373 -0.09452727437019348 -0.20466123521327972 0.10135171562433243 0.0 0.0 1.0 0.0
3422.0 0.05006489157676697 -0.13094748556613922 -0.18995574116706848 0.12084145098924637 0.0 0.0 1.0 0.0
3423.0 0.06786015629768372 -0.1664937436580658 -0.173675537109375 0.13438089191913605 0.0 0.0 1.0 0.0
3424.0 0.0681256353855133 -0.2103179693222046 -0.15524941682815552 0.14731788635253906 0.0 0.0 1.0 0.0
3425.0 0.062750905752182 -0.24917477369308472 -0.13624447584152222 0.15583106875419617 0.0 0.0 1.0 0.0
3426.0 0.04854094982147217 -0.2797755002975464 -0.11592284590005875 0.16118223965168 0.0 0.0 1.0 0.0
3427.0 0.04315325617790222 -0.3122965693473816 -0.10094651579856873 0.16429366171360016 0.0 0.0 1.0 0.0
3428.0 0.01707509160041809 -0.33474230766296387 -0.0841103047132492 0.1651393473148346 0.0 0.0 1.0 0.0
3429.0 -0.010137766599655151 -0.35871511697769165 -0.06996910274028778 0.1633894145488739 0.0 0.0 1.0 0.0
3430.0 -0.02345651388168335 -0.3794754147529602 -0.05657937750220299 0.1620125025510788 0.0 0.0 1.0 0.0
3431.0 -0.05661439895629883 -0.39233750104904175 -0.04620613902807236 0.15918907523155212 0.0 0.0 1.0 0.0
3432.0 -0.07879486680030823 -0.401015967130661 -0.032151930034160614 0.15611834824085236 0.0 0.0 1.0 0.0
3433.0 -0.10549110174179077 -0.4056124687194824 -0.0218647550791502 0.15253452956676483 0.0 0.0 1.0 0.0
3434.0 -0.1326202005147934 -0.4110052287578583 -0.014608537778258324 0.14734579622745514 0.0 0.0 1.0 0.0
3435.0 -0.14932118356227875 -0.4121355712413788 -0.00816054455935955 0.14313264191150665 0.0 0.0 1.0 0.0
3436.0 -0.17863957583904266 -0.4152020812034607 -0.0008826926350593567 0.137313574552536 0.0 0.0 1.0 0.0
3437.0 -0.1921435445547104 -0.4104714095592499 0.006891642697155476 0.13380196690559387 0.0 0.0 1.0 0.0
3438.0 -0.23332059383392334 -0.40756213665008545 0.01434263400733471 0.12873980402946472 0.0 0.0 1.0 0.0
3439.0 -0.24105101823806763 -0.398790180683136 0.018059734255075455 0.1230539008975029 0.0 0.0 1.0 0.0
3440.0 -0.26490387320518494 -0.39791470766067505 0.020997095853090286 0.12172067165374756 0.0 0.0 1.0 0.0
3441.0 -0.2774636149406433 -0.3896128535270691 0.025109373033046722 0.11681944876909256 0.0 0.0 1.0 0.0
3442.0 -0.29432106018066406 -0.38049790263175964 0.0299668088555336 0.11261215806007385 0.0 0.0 1.0 0.0
3443.0 -0.32299232482910156 -0.36769577860832214 0.03286682814359665 0.10819769650697708 0.0 0.0 1.0 0.0
3444.0 -0.3277338445186615 -0.35791489481925964 0.036710046231746674 0.10408570617437363 0.0 0.0 1.0 0.0
3445.0 -0.34290915727615356 -0.3421575129032135 0.03836410865187645 0.10027173161506653 0.0 0.0 1.0 0.0
3446.0 -0.35865718126296997 -0.33257344365119934 0.04204969480633736 0.09740039706230164 0.0 0.0 1.0 0.0
3447.0 -0.37119758129119873 -0.3243679404258728 0.044826485216617584 0.09984676539897919 0.0 0.0 1.0 0.0
3448.0 -0.3859061598777771 -0.3067971467971802 0.04898136109113693 0.09603960812091827 0.0 0.0 1.0 0.0
3449.0 -0.38896405696868896 -0.29617756605148315 0.0483282171189785 0.08649662882089615 0.0 0.0 1.0 0.0
3450.0 -0.4040325880050659 -0.2843254804611206 0.051967374980449677 0.08927952498197556 0.0 0.0 1.0 0.0
3451.0 -0.4131487011909485 -0.26895132660865784 0.05419755354523659 0.08528746664524078 0.0 0.0 1.0 0.0
3452.0 -0.42466580867767334 -0.25224608182907104 0.054078347980976105 0.07783100008964539 0.0 0.0 1.0 0.0
3453.0 -0.4256029725074768 -0.24046263098716736 0.05810488760471344 0.07911614328622818 0.0 0.0 1.0 0.0
3454.0 -0.4355688989162445 -0.22897009551525116 0.059390515089035034 0.07554958015680313 0.0 0.0 1.0 0.0
3455.0 -0.4439649283885956 -0.21325089037418365 0.05788566172122955 0.06922519952058792 0.0 0.0 1.0 0.0
3456.0 -0.4526345133781433 -0.20500002801418304 0.05920683592557907 0.06582053750753403 0.0 0.0 1.0 0.0
3457.0 -0.4521869719028473 -0.19088423252105713 0.05996813625097275 0.0643935278058052 0.0 0.0 1.0 0.0
3458.0 -0.4601516127586365 -0.17305953800678253 0.06159476563334465 0.06152144446969032 0.0 0.0 1.0 0.0
3459.0 -0.4664497971534729 -0.158483624458313 0.06327849626541138 0.058680418878793716 0.0 0.0 1.0 0.0
3460.0 -0.4639027416706085 -0.15105779469013214 0.0631035715341568 0.05748182535171509 0.0 0.0 1.0 0.0
3461.0 -0.4685007631778717 -0.13391989469528198 0.06795259565114975 0.05889734998345375 0.0 0.0 1.0 0.0
3462.0 -0.47387439012527466 -0.11540046334266663 0.06623590737581253 0.05274992063641548 0.0 0.0 1.0 0.0
3463.0 -0.472738653421402 -0.10303989052772522 0.06710923463106155 0.04952497035264969 0.0 0.0 1.0 0.0
3464.0 -0.4769238829612732 -0.0912984162569046 0.06931664049625397 0.048304103314876556 0.0 0.0 1.0 0.0
3465.0 -0.4780316948890686 -0.07379058003425598 0.07068424671888351 0.04491544887423515 0.0 0.0 1.0 0.0
3466.0 -0.47494783997535706 -0.05923876166343689 0.07097375392913818 0.04380402714014053 0.0 0.0 1.0 0.0
3467.0 -0.479623943567276 -0.04867742955684662 0.07245523482561111 0.04188517481088638 0.0 0.0 1.0 0.0
3468.0 -0.4765027165412903 -0.030754536390304565 0.07356547564268112 0.03943588584661484 0.0 0.0 1.0 0.0
3469.0 -0.4715537428855896 -0.02153022587299347 0.07406345009803772 0.03662349656224251 0.0 0.0 1.0 0.0
3470.0 -0.4694681763648987 -0.0029060691595077515 0.07500912249088287 0.03440422564744949 0.0 0.0 1.0 0.0
3471.0 -0.46540600061416626 0.00789596140384674 0.07636408507823944 0.033183708786964417 0.0 0.0 1.0 0.0
3472.0 -0.4627492129802704 0.023848295211791992 0.07893098890781403 0.02850286103785038 0.0 0.0 1.0 0.0
3473.0 -0.46049821376800537 0.031682148575782776 0.07894264161586761 0.027382900938391685 0.0 0.0 1.0 0.0
3474.0 -0.4605853855609894 0.04398053139448166 0.07907073199748993 0.024833351373672485 0.0 0.0 1.0 0.0
3475.0 -0.45450493693351746 0.057272784411907196 0.08157040923833847 0.021908000111579895 0.0 0.0 1.0 0.0
3476.0 -0.4467832148075104 0.06899910420179367 0.081169493496418 0.018749672919511795 0.0 0.0 1.0 0.0
3477.0 -0.4398093521595001 0.07903176546096802 0.08232473582029343 0.015773117542266846 0.0 0.0 1.0 0.0
3478.0 -0.43508997559547424 0.09090545028448105 0.08369040489196777 0.013348652049899101 0.0 0.0 1.0 0.0
3479.0 -0.42618095874786377 0.10275471955537796 0.08425657451152802 0.01000230386853218 0.0 0.0 1.0 0.0
3480.0 -0.4219919741153717 0.11341316252946854 0.08405149728059769 0.00823292788118124 0.0 0.0 1.0 0.0
3481.0 -0.4128131568431854 0.1256159543991089 0.08506779372692108 0.004004138521850109 0.0 0.0 1.0 0.0
3482.0 -0.40622028708457947 0.13363534212112427 0.08511970192193985 0.0023110825568437576 0.0 0.0 1.0 0.0
3483.0 -0.39853501319885254 0.14608120918273926 0.08512885123491287 -0.0013281581923365593 0.0 0.0 1.0 0.0
3484.0 -0.3897096514701843 0.15532293915748596 0.08584034442901611 -0.00325580220669508 0.0 0.0 1.0 0.0
3485.0 -0.38298022747039795 0.16195997595787048 0.08525622636079788 -0.008380762301385403 0.0 0.0 1.0 0.0
3486.0 -0.37109652161598206 0.16813132166862488 0.08690144866704941 -0.010323361493647099 0.0 0.0 1.0 0.0
3487.0 -0.36320433020591736 0.17729857563972473 0.08565021306276321 -0.015561843290925026 0.0 0.0 1.0 0.0
3488.0 -0.35606664419174194 0.18162135779857635 0.08552826195955276 -0.018344325944781303 0.0 0.0 1.0 0.0
3489.0 -0.34430426359176636 0.18983963131904602 0.08484456688165665 -0.021020174026489258 0.0 0.0 1.0 0.0
3490.0 -0.3368839621543884 0.19066248834133148 0.08506768941879272 -0.025373317301273346 0.0 0.0 1.0 0.0
3491.0 -0.32655781507492065 0.20399940013885498 0.08402704447507858 -0.029133126139640808 0.0 0.0 1.0 0.0
3492.0 -0.3157025873661041 0.20857539772987366 0.0827193558216095 -0.03091123141348362 0.0 0.0 1.0 0.0
3493.0 -0.3082449734210968 0.21231722831726074 0.08243169635534286 -0.034243661910295486 0.0 0.0 1.0 0.0
3494.0 -0.29865938425064087 0.21095050871372223 0.08098271489143372 -0.03876141086220741 0.0 0.0 1.0 0.0
3495.0 -0.28801485896110535 0.21855121850967407 0.08065419644117355 -0.04152156040072441 0.0 0.0 1.0 0.0
3496.0 -0.280179500579834 0.2197098582983017 0.07796028256416321 -0.04583023488521576 0.0 0.0 1.0 0.0
3497.0 -0.2689330577850342 0.22865641117095947 0.07731609791517258 -0.04936718940734863 0.0 0.0 1.0 0.0
3498.0 -0.2574397921562195 0.22678735852241516 0.07365638762712479 -0.052774570882320404 0.0 0.0 1.0 0.0
3499.0 -0.25062596797943115 0.22696208953857422 0.0731862410902977 -0.05568622052669525 0.0 0.0 1.0 0.0
3500.0 -0.24227651953697205 0.22646453976631165 0.06950666755437851 -0.05971492454409599 0.0 0.0 1.0 0.0
