!Created with skrf (http://scikit-rf.org).
# MHz S RI R 50.0 
!freq ReS11 ImS11 ReS21 ImS21 ReS12 ImS12 ReS22 ImS22
3400.0 -0.08761194348335266 -0.47678911685943604 -0.025693297386169434 -0.1145506501197815 0.0 0.0 1.0 0.0
3401.0 -0.1251470148563385 -0.4677758812904358 -0.03486556187272072 -0.11740865558385849 0.0 0.0 1.0 0.0
3402.0 -0.1437797248363495 -0.45479267835617065 -0.04331129044294357 -0.11951888352632523 0.0 0.0 1.0 0.0
3403.0 -0.18002961575984955 -0.4340543746948242 -0.05272416025400162 -0.1219579428434372 0.0 0.0 1.0 0.0
3404.0 -0.20115165412425995 -0.4135870039463043 -0.06174548715353012 -0.1250382512807846 0.0 0.0 1.0 0.0
3405.0 -0.22662243247032166 -0.38804665207862854 -0.07469139993190765 -0.12593448162078857 0.0 0.0 1.0 0.0
3406.0 -0.24845543503761292 -0.3616935610771179 -0.08649904280900955 -0.12580561637878418 0.0 0.0 1.0 0.0
3407.0 -0.263964980840683 -0.33624741435050964 -0.09872017055749893 -0.12649744749069214 0.0 0.0 1.0 0.0
3408.0 -0.27908816933631897 -0.30441761016845703 -0.11213508993387222 -0.12500406801700592 0.0 0.0 1.0 0.0
3409.0 -0.29119783639907837 -0.26602640748023987 -0.1290385127067566 -0.11924722790718079 0.0 0.0 1.0 0.0
3410.0 -0.29232916235923767 -0.23246698081493378 -0.1422499567270279 -0.11542212963104248 0.0 0.0 1.0 0.0
3411.0 -0.2880629897117615 -0.18934951722621918 -0.15980668365955353 -0.10641099512577057 0.0 0.0 1.0 0.0
3412.0 -0.2807905673980713 -0.15485499799251556 -0.175566166639328 -0.09557518362998962 0.0 0.0 1.0 0.0
3413.0 -0.2635003328323364 -0.11669938266277313 -0.19126568734645844 -0.07934989780187607 0.0 0.0 1.0 0.0
3414.0 -0.2358170598745346 -0.08429375290870667 -0.2036893665790558 -0.06445351988077164 0.0 0.0 1.0 0.0
3415.0 -0.20183292031288147 -0.059084564447402954 -0.21659737825393677 -0.046698201447725296 0.0 0.0 1.0 0.0
3416.0 -0.16371650993824005 -0.04450586438179016 -0.22391347587108612 -0.02114451490342617 0.0 0.0 1.0 0.0
3417.0 -0.12431098520755768 -0.03314568102359772 -0.23021654784679413 0.00257258303463459 0.0 0.0 1.0 0.0
3418.0 -0.07862329483032227 -0.034697726368904114 -0.23095086216926575 0.028953544795513153 0.0 0.0 1.0 0.0
3419.0 -0.04180005192756653 -0.04752334952354431 -0.22597353160381317 0.055164635181427 0.0 0.0 1.0 0.0
3420.0 -0.0005134642124176025 -0.06770497560501099 -0.21724696457386017 0.07762414962053299 0.0 0.0 1.0 0.0
3421.0 0.029041379690170288 -0.09971615672111511 -0.20508964359760284 0.10031169652938843 0.0 0.0 1.0 0.0
3422.0 0.05087977647781372 -0.12956154346466064 -0.187837615609169 0.12332216650247574 0.0 0.0 1.0 0.0
3423.0 0.0631730854511261 -0.17081201076507568 -0.17075958847999573 0.13497678935527802 0.0 0.0 1.0 0.0
3424.0 0.06770074367523193 -0.2089725136756897 -0.15260030329227448 0.14619143307209015 0.0 0.0 1.0 0.0
3425.0 0.066780686378479 -0.24596834182739258 -0.13564850389957428 0.15318137407302856 0.0 0.0 1.0 0.0
3426.0 0.05123332142829895 -0.277418851852417 -0.11434387415647507 0.1614898145198822 0.0 0.0 1.0 0.0
3427.0 0.0368727445602417 -0.31099021434783936 -0.09918040782213211 0.16367125511169434 0.0 0.0 1.0 0.0
3428.0 0.022860735654830933 -0.33798491954803467 -0.0843556672334671 0.16410209238529205 0.0 0.0 1.0 0.0
3429.0 -0.005130678415298462 -0.36201342940330505 -0.07025481760501862 0.16362035274505615 0.0 0.0 1.0 0.0
3430.0 -0.03327319025993347 -0.3765285611152649 -0.054363053292036057 0.16171108186244965 0.0 0.0 1.0 0.0
3431.0 -0.05669039487838745 -0.3893235921859741 -0.041954077780246735 0.1590055525302887 0.0 0.0 1.0 0.0
3432.0 -0.07549718022346497 -0.4003450274467468 -0.03227989375591278 0.15551121532917023 0.0 0.0 1.0 0.0
3433.0 -0.103939950466156 -0.4058343172073364 -0.023461315780878067 0.15084955096244812 0.0 0.0 1.0 0.0
3434.0 -0.12442415952682495 -0.4093773663043976 -0.014169687405228615 0.14695437252521515 0.0 0.0 1.0 0.0
3435.0 -0.15835656225681305 -0.41300302743911743 -0.00460444763302803 0.14162874221801758 0.0 0.0 1.0 0.0
3436.0 -0.1803545355796814 -0.40997880697250366 0.0010934043675661087 0.1368451863527298 0.0 0.0 1.0 0.0
3437.0 -0.19597963988780975 -0.4061391353607178 0.0072259726002812386 0.1325799971818924 0.0 0.0 1.0 0.0
3438.0 -0.21629981696605682 -0.4035937190055847 0.011202208697795868 0.12762385606765747 0.0 0.0 1.0 0.0
3439.0 -0.25059056282043457 -0.40204328298568726 0.017563916742801666 0.12484337389469147 0.0 0.0 1.0 0.0
3440.0 -0.26245734095573425 -0.391292542219162 0.02206556312739849 0.1203031912446022 0.0 0.0 1.0 0.0
3441.0 -0.2852901518344879 -0.38265252113342285 0.027037350460886955 0.11529228091239929 0.0 0.0 1.0 0.0
3442.0 -0.2983461022377014 -0.37864255905151367 0.02849585935473442 0.11202514171600342 0.0 0.0 1.0 0.0
3443.0 -0.3147854506969452 -0.3643411695957184 0.03262873739004135 0.10774289071559906 0.0 0.0 1.0 0.0
3444.0 -0.33532676100730896 -0.3580259084701538 0.03693430870771408 0.10435379296541214 0.0 0.0 1.0 0.0
3445.0 -0.34746384620666504 -0.33897629380226135 0.03995295241475105 0.09938530623912811 0.0 0.0 1.0 0.0
3446.0 -0.3598211705684662 -0.3382411599159241 0.04142154008150101 0.09706440567970276 0.0 0.0 1.0 0.0
3447.0 -0.3770935833454132 -0.3160642385482788 0.04656336456537247 0.09923084825277328 0.0 0.0 1.0 0.0
3448.0 -0.3825575113296509 -0.30854061245918274 0.04635665565729141 0.08906293660402298 0.0 0.0 1.0 0.0
3449.0 -0.3954063057899475 -0.2983843982219696 0.04984854534268379 0.09254825860261917 0.0 0.0 1.0 0.0
3450.0 -0.4031713306903839 -0.2810669541358948 0.048991668969392776 0.08331526070833206 0.0 0.0 1.0 0.0
3451.0 -0.41330453753471375 -0.2736831605434418 0.05380464345216751 0.08498700708150864 0.0 0.0 1.0 0.0
3452.0 -0.4271138608455658 -0.2522501051425934 0.05464840680360794 0.07657970488071442 0.0 0.0 1.0 0.0
3453.0 -0.43318620324134827 -0.2397322654724121 0.057019393891096115 0.07892699539661407 0.0 0.0 1.0 0.0
3454.0 -0.437581866979599 -0.23009100556373596 0.0564078763127327 0.07143405824899673 0.0 0.0 1.0 0.0
3455.0 -0.44296368956565857 -0.21747271716594696 0.0607810840010643 0.07308734953403473 0.0 0.0 1.0 0.0
3456.0 -0.4472036361694336 -0.20226240158081055 0.058916158974170685 0.06601142138242722 0.0 0.0 1.0 0.0
3457.0 -0.45695164799690247 -0.19558501243591309 0.05962571129202843 0.06441882252693176 0.0 0.0 1.0 0.0
3458.0 -0.4647487998008728 -0.17442281544208527 0.06460348516702652 0.0655076652765274 0.0 0.0 1.0 0.0
3459.0 -0.4682824909687042 -0.15734730660915375 0.06322537362575531 0.05827850475907326 0.0 0.0 1.0 0.0
3460.0 -0.4697685241699219 -0.14922499656677246 0.06408139318227768 0.05711585283279419 0.0 0.0 1.0 0.0
3461.0 -0.47057902812957764 -0.1305898129940033 0.06474313139915466 0.05448859557509422 0.0 0.0 1.0 0.0
3462.0 -0.47312116622924805 -0.11316017806529999 0.06700960546731949 0.05234208330512047 0.0 0.0 1.0 0.0
3463.0 -0.47331464290618896 -0.11026912927627563 0.06686243414878845 0.05120408162474632 0.0 0.0 1.0 0.0
3464.0 -0.4785517454147339 -0.08981770277023315 0.06865721195936203 0.047894515097141266 0.0 0.0 1.0 0.0
3465.0 -0.48205694556236267 -0.0720154196023941 0.07036163657903671 0.04576275125145912 0.0 0.0 1.0 0.0
3466.0 -0.4785293936729431 -0.05854077637195587 0.07140002399682999 0.04321610927581787 0.0 0.0 1.0 0.0
3467.0 -0.47522109746932983 -0.039638862013816833 0.07237695902585983 0.04064232110977173 0.0 0.0 1.0 0.0
3468.0 -0.474721759557724 -0.030080154538154602 0.07346262037754059 0.03851708397269249 0.0 0.0 1.0 0.0
3469.0 -0.4696672260761261 -0.022108659148216248 0.07361303269863129 0.03663168102502823 0.0 0.0 1.0 0.0
3470.0 -0.47250261902809143 -0.0027327388525009155 0.07513606548309326 0.03426817059516907 0.0 0.0 1.0 0.0
3471.0 -0.4674966335296631 0.00863887369632721 0.07621471583843231 0.03136076405644417 0.0 0.0 1.0 0.0
3472.0 -0.4654521942138672 0.02718883752822876 0.07705044746398926 0.029240213334560394 0.0 0.0 1.0 0.0
3473.0 -0.45932117104530334 0.03340035676956177 0.07831264287233353 0.027993541210889816 0.0 0.0 1.0 0.0
3474.0 -0.45847874879837036 0.05224686115980148 0.0799189880490303 0.024159293621778488 0.0 0.0 1.0 0.0
3475.0 -0.44996482133865356 0.06303098052740097 0.08085288107395172 0.021337471902370453 0.0 0.0 1.0 0.0
3476.0 -0.44811901450157166 0.07310836017131805 0.08142906427383423 0.01924014464020729 0.0 0.0 1.0 0.0
3477.0 -0.4410247504711151 0.08303578943014145 0.08200429379940033 0.016740113496780396 0.0 0.0 1.0 0.0
3478.0 -0.4366093873977661 0.09686099737882614 0.0828716829419136 0.012995647266507149 0.0 0.0 1.0 0.0
3479.0 -0.4289766550064087 0.10682718455791473 0.08328069746494293 0.010814857669174671 0.0 0.0 1.0 0.0
3480.0 -0.4222586154937744 0.10991183668375015 0.08394026011228561 0.008544599637389183 0.0 0.0 1.0 0.0
3481.0 -0.4138585329055786 0.1264708936214447 0.08449610322713852 0.004746689461171627 0.0 0.0 1.0 0.0
3482.0 -0.40724557638168335 0.12876386940479279 0.08495704084634781 0.002079973928630352 0.0 0.0 1.0 0.0
3483.0 -0.398094117641449 0.14530186355113983 0.08491339534521103 -0.0015359073877334595 0.0 0.0 1.0 0.0
3484.0 -0.38852304220199585 0.1555485725402832 0.0854334682226181 -0.005847840569913387 0.0 0.0 1.0 0.0
3485.0 -0.3796463906764984 0.1603253036737442 0.08543599396944046 -0.007926077581942081 0.0 0.0 1.0 0.0
3486.0 -0.3748701512813568 0.1673486828804016 0.08579085022211075 -0.010806490667164326 0.0 0.0 1.0 0.0
3487.0 -0.36320963501930237 0.17701828479766846 0.0857427641749382 -0.014616049826145172 0.0 0.0 1.0 0.0
3488.0 -0.35723382234573364 0.18019065260887146 0.08519517630338669 -0.016851386055350304 0.0 0.0 1.0 0.0
3489.0 -0.34603235125541687 0.18907439708709717 0.08498508483171463 -0.021052664145827293 0.0 0.0 1.0 0.0
3490.0 -0.3399394750595093 0.19581905007362366 0.08483929187059402 -0.02507377229630947 0.0 0.0 1.0 0.0
3491.0 -0.3213042616844177 0.20367559790611267 0.08302941918373108 -0.028894292190670967 0.0 0.0 1.0 0.0
3492.0 -0.31847184896469116 0.20295357704162598 0.082314632833004 -0.031307149678468704 0.0 0.0 1.0 0.0
3493.0 -0.3057662844657898 0.21238723397254944 0.0816674679517746 -0.03482946380972862 0.0 0.0 1.0 0.0
3494.0 -0.2984357476234436 0.21014241874217987 0.08090119063854218 -0.03721082583069801 0.0 0.0 1.0 0.0
3495.0 -0.28690671920776367 0.21883222460746765 0.07907555252313614 -0.04235811159014702 0.0 0.0 1.0 0.0
3496.0 -0.2796763479709625 0.2219332605600357 0.07717292755842209 -0.045468904078006744 0.0 0.0 1.0 0.0
3497.0 -0.2718335688114166 0.2236097753047943 0.07550128549337387 -0.04834766313433647 0.0 0.0 1.0 0.0
3498.0 -0.26200395822525024 0.22309403121471405 0.07344871759414673 -0.052030161023139954 0.0 0.0 1.0 0.0
3499.0 -0.2544395327568054 0.22844038903713226 0.07239769399166107 -0.05538502335548401 0.0 0.0 1.0 0.0
3500.0 -0.24310046434402466 0.22852835059165955 0.07026900351047516 -0.05858995020389557 0.0 0.0 1.0 0.0
