!Created with skrf (http://scikit-rf.org).
# MHz S RI R 50.0 
!freq ReS11 ImS11 ReS21 ImS21 ReS12 ImS12 ReS22 ImS22
3400.0 -0.12424373626708984 -0.04633671045303345 5.75454905629158e-05 -0.00038475170731544495 0.0 0.0 1.0 0.0
3401.0 -0.12532173097133636 -0.047950997948646545 -0.00010167155414819717 8.591264486312866e-05 0.0 0.0 1.0 0.0
3402.0 -0.12623190879821777 -0.046555668115615845 0.0001784730702638626 -7.418449968099594e-05 0.0 0.0 1.0 0.0
3403.0 -0.12444376945495605 -0.04836273193359375 0.00012906361371278763 3.477651625871658e-05 0.0 0.0 1.0 0.0
3404.0 -0.1269972175359726 -0.04513813555240631 -0.0002099163830280304 -0.0001507038250565529 0.0 0.0 1.0 0.0
3405.0 -0.11864972114562988 -0.043697237968444824 8.997507393360138e-05 -0.00015905406326055527 0.0 0.0 1.0 0.0
3406.0 -0.12196046113967896 -0.044654518365859985 -5.27501106262207e-05 -0.0006449483335018158 0.0 0.0 1.0 0.0
3407.0 -0.12492887675762177 -0.05244627594947815 7.091090083122253e-05 -0.00011634547263383865 0.0 0.0 1.0 0.0
3408.0 -0.12468303740024567 -0.04833589494228363 5.054660141468048e-05 -2.8468668460845947e-05 0.0 0.0 1.0 0.0
3409.0 -0.1234973818063736 -0.042151421308517456 -8.036941289901733e-05 -0.0001748679205775261 0.0 0.0 1.0 0.0
3410.0 -0.12548677623271942 -0.04495061933994293 0.00025662779808044434 -0.0002769138664007187 0.0 0.0 1.0 0.0
3411.0 -0.12366718053817749 -0.04693542420864105 -7.884576916694641e-05 -0.00026547256857156754 0.0 0.0 1.0 0.0
3412.0 -0.13037054240703583 -0.04626953601837158 -9.711366146802902e-05 -0.00034229177981615067 0.0 0.0 1.0 0.0
3413.0 -0.12787218391895294 -0.04815332591533661 -0.0003264760598540306 -0.0001382855698466301 0.0 0.0 1.0 0.0
3414.0 -0.12612254917621613 -0.04700672626495361 -0.00015049707144498825 9.806826710700989e-06 0.0 0.0 1.0 0.0
3415.0 -0.12458229064941406 -0.04725329577922821 -0.0003620283678174019 -0.00015511643141508102 0.0 0.0 1.0 0.0
3416.0 -0.12646567821502686 -0.04566529393196106 -0.00022113043814897537 -0.00023383647203445435 0.0 0.0 1.0 0.0
3417.0 -0.12980909645557404 -0.0453377366065979 2.2028572857379913e-05 -0.0003178240731358528 0.0 0.0 1.0 0.0
3418.0 -0.12482687830924988 -0.0485350638628006 -0.0001267213374376297 -0.0003473907709121704 0.0 0.0 1.0 0.0
3419.0 -0.12508231401443481 -0.044591471552848816 -3.9662234485149384e-05 -7.546413689851761e-05 0.0 0.0 1.0 0.0
3420.0 -0.12630845606327057 -0.046438977122306824 2.4866312742233276e-07 -0.00018590129911899567 0.0 0.0 1.0 0.0
3421.0 -0.12830394506454468 -0.04652196168899536 -0.0003379089757800102 7.442384958267212e-05 0.0 0.0 1.0 0.0
3422.0 -0.1282130777835846 -0.04820241034030914 -0.00011221598833799362 -3.194715827703476e-05 0.0 0.0 1.0 0.0
3423.0 -0.12392964959144592 -0.04399627447128296 -0.0002334490418434143 -0.00027437228709459305 0.0 0.0 1.0 0.0
3424.0 -0.12467727065086365 -0.04393512010574341 -4.404596984386444e-05 -6.888061761856079e-05 0.0 0.0 1.0 0.0
3425.0 -0.12827330827713013 -0.045638471841812134 -0.00033478066325187683 -0.00022554956376552582 0.0 0.0 1.0 0.0
3426.0 -0.13095422089099884 -0.044541940093040466 -5.6189484894275665e-05 5.148816853761673e-05 0.0 0.0 1.0 0.0
3427.0 -0.12857218086719513 -0.042147696018218994 -7.939338684082031e-05 -0.0002118293195962906 0.0 0.0 1.0 0.0
3428.0 -0.12852197885513306 -0.044595345854759216 -9.730830788612366e-05 -0.0003696056082844734 0.0 0.0 1.0 0.0
3429.0 -0.1285349428653717 -0.045498013496398926 -3.722682595252991e-05 -0.00012831110507249832 0.0 0.0 1.0 0.0
3430.0 -0.13219428062438965 -0.045500174164772034 -0.0002752896398305893 -0.00016409624367952347 0.0 0.0 1.0 0.0
3431.0 -0.13055352866649628 -0.04111944139003754 -5.945563316345215e-05 -9.012501686811447e-05 0.0 0.0 1.0 0.0
3432.0 -0.1283637285232544 -0.04237453639507294 3.260187804698944e-05 -0.00017596594989299774 0.0 0.0 1.0 0.0
3433.0 -0.12825298309326172 -0.03796248137950897 6.721075624227524e-05 -0.0001335078850388527 0.0 0.0 1.0 0.0
3434.0 -0.13221251964569092 -0.04273964464664459 0.00010931678116321564 -0.00026925839483737946 0.0 0.0 1.0 0.0
3435.0 -0.1285441815853119 -0.04108668863773346 -8.568074554204941e-05 5.635526031255722e-05 0.0 0.0 1.0 0.0
3436.0 -0.128390371799469 -0.0421585887670517 -0.00010899081826210022 -6.987713277339935e-05 0.0 0.0 1.0 0.0
3437.0 -0.13001316785812378 -0.04202963411808014 5.709845572710037e-05 -0.00022019632160663605 0.0 0.0 1.0 0.0
3438.0 -0.12977385520935059 -0.0394275039434433 8.575990796089172e-05 -0.0002277623862028122 0.0 0.0 1.0 0.0
3439.0 -0.13074788451194763 -0.04002745449542999 -4.488881677389145e-05 -1.2759119272232056e-05 0.0 0.0 1.0 0.0
3440.0 -0.13317513465881348 -0.04077225923538208 0.00014619994908571243 -2.959277480840683e-05 0.0 0.0 1.0 0.0
3441.0 -0.1338091790676117 -0.03719806671142578 4.6405941247940063e-05 -0.00020932499319314957 0.0 0.0 1.0 0.0
3442.0 -0.13035762310028076 -0.037778228521347046 -0.00010883994400501251 -0.0003300299867987633 0.0 0.0 1.0 0.0
3443.0 -0.1293712556362152 -0.03573758900165558 -2.5602057576179504e-05 -0.00024487264454364777 0.0 0.0 1.0 0.0
3444.0 -0.131882905960083 -0.03625011444091797 -0.0002456195652484894 -3.264378756284714e-05 0.0 0.0 1.0 0.0
3445.0 -0.13305699825286865 -0.041455626487731934 -0.00017772428691387177 -0.00041812751442193985 0.0 0.0 1.0 0.0
3446.0 -0.13357484340667725 -0.042572781443595886 5.7326629757881165e-05 5.1062554121017456e-05 0.0 0.0 1.0 0.0
3447.0 -0.12976044416427612 -0.03722505271434784 0.00011095963418483734 -7.988046854734421e-05 0.0 0.0 1.0 0.0
3448.0 -0.13102713227272034 -0.037418439984321594 0.00022752583026885986 8.596759289503098e-05 0.0 0.0 1.0 0.0
3449.0 -0.1306198537349701 -0.036038219928741455 -2.082251012325287e-05 -0.00041054561734199524 0.0 0.0 1.0 0.0
3450.0 -0.1319623589515686 -0.035295337438583374 4.926975816488266e-05 -0.00018663890659809113 0.0 0.0 1.0 0.0
3451.0 -0.13044953346252441 -0.03641517460346222 1.5781261026859283e-05 -3.39411199092865e-05 0.0 0.0 1.0 0.0
3452.0 -0.13560330867767334 -0.03641572594642639 4.2957253754138947e-05 -0.00016126595437526703 0.0 0.0 1.0 0.0
3453.0 -0.13228142261505127 -0.03112049400806427 0.00025050248950719833 2.3562461137771606e-07 0.0 0.0 1.0 0.0
3454.0 -0.13205978274345398 -0.030621692538261414 0.00046567153185606003 -0.0002238042652606964 0.0 0.0 1.0 0.0
3455.0 -0.13647380471229553 -0.03368420898914337 0.00012100487947463989 -0.00011591892689466476 0.0 0.0 1.0 0.0
3456.0 -0.13732236623764038 -0.03408949077129364 7.937662303447723e-06 -0.00029755569994449615 0.0 0.0 1.0 0.0
3457.0 -0.13442087173461914 -0.03114841878414154 -0.00013458449393510818 -0.0002069566398859024 0.0 0.0 1.0 0.0
3458.0 -0.13520580530166626 -0.027974098920822144 0.0002520391717553139 -0.00015112850815057755 0.0 0.0 1.0 0.0
3459.0 -0.13411173224449158 -0.03158031404018402 -2.4488195776939392e-05 0.0001266244798898697 0.0 0.0 1.0 0.0
3460.0 -0.1356411576271057 -0.03023672103881836 -2.8400681912899017e-05 4.114583134651184e-06 0.0 0.0 1.0 0.0
3461.0 -0.14033126831054688 -0.029745563864707947 0.0002563614398241043 -0.00024389196187257767 0.0 0.0 1.0 0.0
3462.0 -0.13151279091835022 -0.024832412600517273 0.000263383612036705 -0.00019971933215856552 0.0 0.0 1.0 0.0
3463.0 -0.1363491415977478 -0.032670021057128906 0.0004368619993329048 -0.0004010247066617012 0.0 0.0 1.0 0.0
3464.0 -0.1320369839668274 -0.029799461364746094 0.00032933615148067474 -0.00010493211448192596 0.0 0.0 1.0 0.0
3465.0 -0.13720586895942688 -0.02868570387363434 0.00011391565203666687 -0.00028748437762260437 0.0 0.0 1.0 0.0
3466.0 -0.13522574305534363 -0.028709083795547485 0.00015693902969360352 -0.00036555901169776917 0.0 0.0 1.0 0.0
3467.0 -0.13623642921447754 -0.029448002576828003 0.0002467697486281395 -0.00034231599420309067 0.0 0.0 1.0 0.0
3468.0 -0.13734737038612366 -0.026841729879379272 0.00026213470846414566 -0.0004789317026734352 0.0 0.0 1.0 0.0
3469.0 -0.1345096230506897 -0.023648694157600403 -8.876621723175049e-05 -0.00036497414112091064 0.0 0.0 1.0 0.0
3470.0 -0.13212043046951294 -0.025869712233543396 0.00023847073316574097 -0.0002710530534386635 0.0 0.0 1.0 0.0
3471.0 -0.13574114441871643 -0.02343069016933441 -5.908496677875519e-05 0.00030392035841941833 0.0 0.0 1.0 0.0
3472.0 -0.12904289364814758 -0.02181321382522583 -0.0002556554973125458 -0.00035280175507068634 0.0 0.0 1.0 0.0
3473.0 -0.13363000750541687 -0.020883485674858093 6.417650729417801e-05 -0.0003387071192264557 0.0 0.0 1.0 0.0
3474.0 -0.134240984916687 -0.023712515830993652 3.926362842321396e-05 -0.00031878892332315445 0.0 0.0 1.0 0.0
3475.0 -0.13386520743370056 -0.023328110575675964 -0.0002435743808746338 -0.00021975673735141754 0.0 0.0 1.0 0.0
3476.0 -0.1326662302017212 -0.017101824283599854 -0.00017439015209674835 -0.0005187969654798508 0.0 0.0 1.0 0.0
3477.0 -0.1326342523097992 -0.02179722487926483 5.545280873775482e-05 -0.00046810414642095566 0.0 0.0 1.0 0.0
3478.0 -0.13430249691009521 -0.018842458724975586 0.00017107278108596802 -0.0006451793015003204 0.0 0.0 1.0 0.0
3479.0 -0.13114535808563232 -0.017496377229690552 -0.0001315521076321602 -0.0003646211698651314 0.0 0.0 1.0 0.0
3480.0 -0.1338667869567871 -0.018994957208633423 0.0001725340262055397 -0.0001411372795701027 0.0 0.0 1.0 0.0
3481.0 -0.12909236550331116 -0.015479683876037598 0.0003031967207789421 8.544418960809708e-05 0.0 0.0 1.0 0.0
3482.0 -0.13299310207366943 -0.017455026507377625 -0.00012951437383890152 -0.00037425197660923004 0.0 0.0 1.0 0.0
3483.0 -0.13051769137382507 -0.019764214754104614 -2.1474435925483704e-05 -0.00016132555902004242 0.0 0.0 1.0 0.0
3484.0 -0.13488739728927612 -0.022800922393798828 0.0001576608046889305 -9.236112236976624e-05 0.0 0.0 1.0 0.0
3485.0 -0.1351010799407959 -0.015892714262008667 -7.72988423705101e-05 -0.0005803965032100677 0.0 0.0 1.0 0.0
3486.0 -0.13460952043533325 -0.021304428577423096 -0.0001651328057050705 -8.150748908519745e-05 0.0 0.0 1.0 0.0
3487.0 -0.1319071352481842 -0.012616798281669617 -0.00022229831665754318 -0.0004862407222390175 0.0 0.0 1.0 0.0
3488.0 -0.133253276348114 -0.01561024785041809 0.00017190910875797272 -0.000495661050081253 0.0 0.0 1.0 0.0
3489.0 -0.13113105297088623 -0.015802517533302307 -0.00011783558875322342 -4.180707037448883e-05 0.0 0.0 1.0 0.0
3490.0 -0.1287655234336853 -0.014892280101776123 5.841255187988281e-06 -0.0005246270447969437 0.0 0.0 1.0 0.0
3491.0 -0.1287897527217865 -0.01459360122680664 -0.00026292353868484497 -0.00031061843037605286 0.0 0.0 1.0 0.0
3492.0 -0.13067248463630676 -0.01305440068244934 -4.007015377283096e-05 -0.0007244320586323738 0.0 0.0 1.0 0.0
3493.0 -0.1301831603050232 -0.014371395111083984 0.0004470590502023697 -0.0004106443375349045 0.0 0.0 1.0 0.0
3494.0 -0.12770095467567444 -0.011104986071586609 -3.1472183763980865e-05 -0.000729159452021122 0.0 0.0 1.0 0.0
3495.0 -0.1272582709789276 -0.009298935532569885 -9.051058441400528e-05 -0.0003557708114385605 0.0 0.0 1.0 0.0
3496.0 -0.12521010637283325 -0.011486396193504333 0.0001503247767686844 -0.00011074356734752655 0.0 0.0 1.0 0.0
3497.0 -0.13123124837875366 -0.01210203766822815 -0.0002056984230875969 -0.0003954395651817322 0.0 0.0 1.0 0.0
3498.0 -0.12702646851539612 -0.01337549090385437 -6.495881825685501e-05 -0.0003055371344089508 0.0 0.0 1.0 0.0
3499.0 -0.12694206833839417 -0.010159924626350403 0.00038511864840984344 -0.0005705514922738075 0.0 0.0 1.0 0.0
3500.0 -0.1233750581741333 -0.0129212886095047 -0.00013381242752075195 -0.0005516195669770241 0.0 0.0 1.0 0.0
