!Created with skrf (http://scikit-rf.org).
# MHz S RI R 50.0 
!freq ReS11 ImS11 ReS21 ImS21 ReS12 ImS12 ReS22 ImS22
3400.0 0.02143961191177368 0.5044848322868347 -5.887076258659363e-05 -0.00024257414042949677 0.0 0.0 1.0 0.0
3401.0 0.031570225954055786 0.5011929273605347 -3.851950168609619e-05 -0.00022695492953062057 0.0 0.0 1.0 0.0
3402.0 0.0488506555557251 0.4956645369529724 -0.00035879388451576233 -0.00016497261822223663 0.0 0.0 1.0 0.0
3403.0 0.07524344325065613 0.4875442385673523 5.230121314525604e-05 -1.8551014363765717e-05 0.0 0.0 1.0 0.0
3404.0 0.09117576479911804 0.48404037952423096 2.7370639145374298e-05 -0.00039552338421344757 0.0 0.0 1.0 0.0
3405.0 0.11112156510353088 0.48199963569641113 -0.00019981898367404938 -0.00010566040873527527 0.0 0.0 1.0 0.0
3406.0 0.1319965422153473 0.4745180606842041 0.00017765723168849945 -0.00031290948390960693 0.0 0.0 1.0 0.0
3407.0 0.1488749086856842 0.46373364329338074 0.00018661096692085266 -0.00020820368081331253 0.0 0.0 1.0 0.0
3408.0 0.17179250717163086 0.4570898413658142 -0.00013197027146816254 5.86584210395813e-05 0.0 0.0 1.0 0.0
3409.0 0.1945231556892395 0.4472564458847046 0.00027187541127204895 -5.817040801048279e-05 0.0 0.0 1.0 0.0
3410.0 0.20840370655059814 0.43604061007499695 0.00011285021901130676 -0.00016320962458848953 0.0 0.0 1.0 0.0
3411.0 0.22651302814483643 0.4315464496612549 -5.3291209042072296e-05 -0.00031746551394462585 0.0 0.0 1.0 0.0
3412.0 0.24183720350265503 0.41762712597846985 -0.0002421857789158821 -0.00015658140182495117 0.0 0.0 1.0 0.0
3413.0 0.26149776577949524 0.406499445438385 -0.00013565178960561752 -0.00032135192304849625 0.0 0.0 1.0 0.0
3414.0 0.28425148129463196 0.3901527523994446 -0.0005897078663110733 -9.454227983951569e-05 0.0 0.0 1.0 0.0
3415.0 0.30069440603256226 0.37347620725631714 -0.00017374474555253983 -1.603737473487854e-06 0.0 0.0 1.0 0.0
3416.0 0.31591707468032837 0.3665955066680908 -0.0001089535653591156 -0.0004452560096979141 0.0 0.0 1.0 0.0
3417.0 0.3328344523906708 0.34673061966896057 -0.0004191165789961815 -0.00040905270725488663 0.0 0.0 1.0 0.0
3418.0 0.3428287208080292 0.3285481035709381 1.8722377717494965e-05 -0.00026535335928201675 0.0 0.0 1.0 0.0
3419.0 0.3640202283859253 0.30936235189437866 -0.00022218655794858932 -0.00012236088514328003 0.0 0.0 1.0 0.0
3420.0 0.3777945339679718 0.3010493516921997 -0.00020162109285593033 -9.818095713853836e-05 0.0 0.0 1.0 0.0
3421.0 0.391321063041687 0.270283043384552 2.010725438594818e-06 -9.729992598295212e-05 0.0 0.0 1.0 0.0
3422.0 0.40485095977783203 0.25624844431877136 -0.00027877558022737503 -2.553686499595642e-06 0.0 0.0 1.0 0.0
3423.0 0.41742128133773804 0.22725781798362732 -0.00010764878243207932 -5.9478916227817535e-05 0.0 0.0 1.0 0.0
3424.0 0.4261065721511841 0.20998196303844452 -0.00027452316135168076 -0.0002569863572716713 0.0 0.0 1.0 0.0
3425.0 0.4342832863330841 0.18909800052642822 -0.0002711629495024681 0.00022781360894441605 0.0 0.0 1.0 0.0
3426.0 0.4465431571006775 0.16925610601902008 -0.0002521071583032608 -0.0002449173480272293 0.0 0.0 1.0 0.0
3427.0 0.45675063133239746 0.14737877249717712 -7.998384535312653e-05 -9.220372885465622e-05 0.0 0.0 1.0 0.0
3428.0 0.46052080392837524 0.12751173973083496 -0.00024997349828481674 4.085619002580643e-05 0.0 0.0 1.0 0.0
3429.0 0.4672778844833374 0.09643813222646713 -1.5662983059883118e-05 -0.0001595793291926384 0.0 0.0 1.0 0.0
3430.0 0.4758114814758301 0.0799994021654129 -0.00011388398706912994 -9.598769247531891e-05 0.0 0.0 1.0 0.0
3431.0 0.4786173701286316 0.058990687131881714 5.055312067270279e-05 -0.0004016570746898651 0.0 0.0 1.0 0.0
3432.0 0.48439154028892517 0.022203534841537476 3.3993273973464966e-06 -0.00018483027815818787 0.0 0.0 1.0 0.0
3433.0 0.48910781741142273 0.006208047270774841 9.85926017165184e-05 -0.0002600299194455147 0.0 0.0 1.0 0.0
3434.0 0.4817001521587372 -0.022397398948669434 -9.146425873041153e-05 -0.00012677442282438278 0.0 0.0 1.0 0.0
3435.0 0.48448795080184937 -0.03968563675880432 5.630776286125183e-06 -8.172821253538132e-05 0.0 0.0 1.0 0.0
3436.0 0.4860427975654602 -0.06592170894145966 0.00012126006186008453 -0.0003056321293115616 0.0 0.0 1.0 0.0
3437.0 0.4777454435825348 -0.0956856906414032 -6.026681512594223e-05 2.7505680918693542e-05 0.0 0.0 1.0 0.0
3438.0 0.4706718325614929 -0.11958885192871094 0.00013826042413711548 1.4435499906539917e-07 0.0 0.0 1.0 0.0
3439.0 0.4692344665527344 -0.13693785667419434 0.00012114737182855606 8.509401232004166e-05 0.0 0.0 1.0 0.0
3440.0 0.4642490744590759 -0.1621417999267578 -2.033635973930359e-05 -9.24970954656601e-05 0.0 0.0 1.0 0.0
3441.0 0.46277880668640137 -0.178656667470932 -1.3645738363265991e-05 -0.00015801377594470978 0.0 0.0 1.0 0.0
3442.0 0.45408469438552856 -0.19706210494041443 0.00022679008543491364 -0.00025416910648345947 0.0 0.0 1.0 0.0
3443.0 0.44100651144981384 -0.2297019511461258 2.221018075942993e-05 0.00011833570897579193 0.0 0.0 1.0 0.0
3444.0 0.4327163100242615 -0.25702357292175293 -0.00017858576029539108 -0.00024276040494441986 0.0 0.0 1.0 0.0
3445.0 0.419210821390152 -0.26748567819595337 -6.15166500210762e-05 -0.0003777081146836281 0.0 0.0 1.0 0.0
3446.0 0.40524739027023315 -0.2889418601989746 -0.00012770667672157288 -0.00037969648838043213 0.0 0.0 1.0 0.0
3447.0 0.3945457339286804 -0.3168758749961853 0.0002090679481625557 -0.0005460428074002266 0.0 0.0 1.0 0.0
3448.0 0.38485968112945557 -0.33399564027786255 -0.00010447483509778976 -8.683931082487106e-05 0.0 0.0 1.0 0.0
3449.0 0.37424343824386597 -0.34981614351272583 0.000157221220433712 -5.834270268678665e-05 0.0 0.0 1.0 0.0
3450.0 0.35625913739204407 -0.36260128021240234 0.00019981805235147476 -0.0004362538456916809 0.0 0.0 1.0 0.0
3451.0 0.34665003418922424 -0.37835386395454407 0.00018044468015432358 -0.00026944559067487717 0.0 0.0 1.0 0.0
3452.0 0.33003854751586914 -0.3874630928039551 1.8236227333545685e-05 -0.00046661775559186935 0.0 0.0 1.0 0.0
3453.0 0.3137594759464264 -0.4104684591293335 -4.420056939125061e-06 -0.0005111591890454292 0.0 0.0 1.0 0.0
3454.0 0.29550108313560486 -0.42512276768684387 0.00020975526422262192 -0.0004778606817126274 0.0 0.0 1.0 0.0
3455.0 0.2740519642829895 -0.4434099793434143 8.59331339597702e-06 -0.0002700071781873703 0.0 0.0 1.0 0.0
3456.0 0.257664293050766 -0.45215827226638794 -0.00025217607617378235 -0.0005890196189284325 0.0 0.0 1.0 0.0
3457.0 0.2428995966911316 -0.4744996726512909 6.313621997833252e-05 -0.00017951428890228271 0.0 0.0 1.0 0.0
3458.0 0.22712630033493042 -0.47248923778533936 0.0002624494954943657 -0.000543549656867981 0.0 0.0 1.0 0.0
3459.0 0.20661550760269165 -0.48342588543891907 -3.3523887395858765e-05 -0.0001122625544667244 0.0 0.0 1.0 0.0
3460.0 0.19115817546844482 -0.5032200813293457 2.438761293888092e-05 -9.104330092668533e-05 0.0 0.0 1.0 0.0
3461.0 0.17314612865447998 -0.5032666325569153 -3.908760845661163e-05 -0.00021219532936811447 0.0 0.0 1.0 0.0
3462.0 0.1575748324394226 -0.5131339430809021 0.00012088660150766373 -0.0004280330613255501 0.0 0.0 1.0 0.0
3463.0 0.1361505389213562 -0.5238623023033142 0.00011106021702289581 -0.0002907728776335716 0.0 0.0 1.0 0.0
3464.0 0.10719364881515503 -0.5247350335121155 -1.5412457287311554e-05 -8.178316056728363e-05 0.0 0.0 1.0 0.0
3465.0 0.09539875388145447 -0.5247335433959961 0.0001721540465950966 6.116088479757309e-05 0.0 0.0 1.0 0.0
3466.0 0.0628635585308075 -0.5418673157691956 5.240272730588913e-05 -0.0003405008465051651 0.0 0.0 1.0 0.0
3467.0 0.049722254276275635 -0.5413085222244263 9.327474981546402e-05 -0.00017806235700845718 0.0 0.0 1.0 0.0
3468.0 0.03721335530281067 -0.5430667400360107 0.00032889004796743393 -0.000606822781264782 0.0 0.0 1.0 0.0
3469.0 0.02833494544029236 -0.5480980277061462 0.00021404866129159927 -0.00028264429420232773 0.0 0.0 1.0 0.0
3470.0 -0.007293045520782471 -0.5426735877990723 -0.00010551046580076218 -7.338635623455048e-05 0.0 0.0 1.0 0.0
3471.0 -0.023419171571731567 -0.5415388345718384 0.00012315716594457626 -0.0001780204474925995 0.0 0.0 1.0 0.0
3472.0 -0.03569027781486511 -0.5397582054138184 -9.554345160722733e-05 -1.3490207493305206e-05 0.0 0.0 1.0 0.0
3473.0 -0.058969348669052124 -0.546886682510376 -0.00048164650797843933 -0.0001625269651412964 0.0 0.0 1.0 0.0
3474.0 -0.07461407780647278 -0.5499510765075684 -0.00024355202913284302 -0.0002999575808644295 0.0 0.0 1.0 0.0
3475.0 -0.10217386484146118 -0.5387425422668457 0.0002968795597553253 -0.00034395698457956314 0.0 0.0 1.0 0.0
3476.0 -0.1183609664440155 -0.5409063100814819 4.330649971961975e-06 -0.00010100658982992172 0.0 0.0 1.0 0.0
3477.0 -0.13359493017196655 -0.5340497493743896 0.00020991824567317963 -0.00029269419610500336 0.0 0.0 1.0 0.0
3478.0 -0.15658646821975708 -0.5354658365249634 -6.707943975925446e-05 -0.00043779704719781876 0.0 0.0 1.0 0.0
3479.0 -0.17101863026618958 -0.5277109146118164 -6.349384784698486e-05 -0.000196017324924469 0.0 0.0 1.0 0.0
3480.0 -0.1841006875038147 -0.5156762003898621 0.00042056571692228317 5.8486126363277435e-05 0.0 0.0 1.0 0.0
3481.0 -0.2143750786781311 -0.5195107460021973 8.754618465900421e-05 -0.00031161122024059296 0.0 0.0 1.0 0.0
3482.0 -0.2205876111984253 -0.5101664066314697 -1.716427505016327e-06 -0.0003074575215578079 0.0 0.0 1.0 0.0
3483.0 -0.22293700277805328 -0.501589298248291 0.00031212717294692993 -1.3560056686401367e-05 0.0 0.0 1.0 0.0
3484.0 -0.24445393681526184 -0.48552682995796204 -0.00013475026935338974 -0.0005121361464262009 0.0 0.0 1.0 0.0
3485.0 -0.2639120817184448 -0.4915488660335541 -9.499955922365189e-05 -6.604567170143127e-05 0.0 0.0 1.0 0.0
3486.0 -0.27772828936576843 -0.48199236392974854 -0.00037057045847177505 -0.0004825955256819725 0.0 0.0 1.0 0.0
3487.0 -0.29896485805511475 -0.4640852212905884 0.0001719566062092781 -0.00042749475687742233 0.0 0.0 1.0 0.0
3488.0 -0.29883748292922974 -0.46201419830322266 0.0004296842962503433 -0.0004993723705410957 0.0 0.0 1.0 0.0
3489.0 -0.3114701807498932 -0.4565252363681793 -0.00013834703713655472 -0.00012306123971939087 0.0 0.0 1.0 0.0
3490.0 -0.3350304365158081 -0.43711960315704346 -4.2020343244075775e-05 -3.8127414882183075e-05 0.0 0.0 1.0 0.0
3491.0 -0.3456423282623291 -0.4343094229698181 -8.83694738149643e-05 -0.000986010767519474 0.0 0.0 1.0 0.0
3492.0 -0.35198718309402466 -0.4216632843017578 -7.21784308552742e-05 -0.0003499360755085945 0.0 0.0 1.0 0.0
3493.0 -0.36080411076545715 -0.4144584834575653 -4.9591995775699615e-05 0.00012043677270412445 0.0 0.0 1.0 0.0
3494.0 -0.3727349042892456 -0.40897437930107117 -3.032386302947998e-05 -0.00015157554298639297 0.0 0.0 1.0 0.0
3495.0 -0.3843899071216583 -0.39419370889663696 0.00010011624544858932 -0.000273372046649456 0.0 0.0 1.0 0.0
3496.0 -0.3928653597831726 -0.3827381134033203 4.494562745094299e-06 5.673710256814957e-05 0.0 0.0 1.0 0.0
3497.0 -0.40096065402030945 -0.37291252613067627 8.335988968610764e-05 -0.00011903885751962662 0.0 0.0 1.0 0.0
3498.0 -0.41650447249412537 -0.35932764410972595 9.829550981521606e-05 -0.00012570340186357498 0.0 0.0 1.0 0.0
3499.0 -0.4301675856113434 -0.3478397727012634 2.3662112653255463e-05 -0.0007448988035321236 0.0 0.0 1.0 0.0
3500.0 -0.4250093102455139 -0.3413819670677185 -4.992634057998657e-05 -0.0001925872638821602 0.0 0.0 1.0 0.0
