!Created with skrf (http://scikit-rf.org).
# MHz S RI R 50.0 
!freq ReS11 ImS11 ReS21 ImS21 ReS12 ImS12 ReS22 ImS22
3400.0 -0.3336874842643738 -0.4937695860862732 -1.017935574054718e-06 0.00018898677080869675 0.0 0.0 0.0 0.0
3401.0 -0.3380918800830841 -0.4787485599517822 0.00020968541502952576 2.393033355474472e-05 0.0 0.0 0.0 0.0
3402.0 -0.3626227378845215 -0.46689939498901367 -0.00017686281353235245 -0.00019970722496509552 0.0 0.0 0.0 0.0
3403.0 -0.3765888810157776 -0.46892547607421875 7.927417755126953e-05 -0.00039089564234018326 0.0 0.0 0.0 0.0
3404.0 -0.37974366545677185 -0.45146194100379944 -0.00029517896473407745 -0.00011013075709342957 0.0 0.0 0.0 0.0
3405.0 -0.39138028025627136 -0.4444313943386078 -0.00010654423385858536 -0.00026121269911527634 0.0 0.0 0.0 0.0
3406.0 -0.3990597426891327 -0.4261477589607239 0.00012202654033899307 -0.00028701871633529663 0.0 0.0 0.0 0.0
3407.0 -0.4141315817832947 -0.42016860842704773 0.00017421506345272064 -0.0003278907388448715 0.0 0.0 0.0 0.0
3408.0 -0.4282100796699524 -0.41311344504356384 4.178006201982498e-05 -0.0001595607027411461 0.0 0.0 0.0 0.0
3409.0 -0.4314683973789215 -0.3973735570907593 -0.000177883543074131 -3.2735057175159454e-05 0.0 0.0 0.0 0.0
3410.0 -0.4378587007522583 -0.391707181930542 -7.425528019666672e-05 -0.00015721283853054047 0.0 0.0 0.0 0.0
3411.0 -0.44990605115890503 -0.379222571849823 1.5751458704471588e-05 -0.00010233372449874878 0.0 0.0 0.0 0.0
3412.0 -0.4611876904964447 -0.3657182455062866 -0.00029217638075351715 -0.00024058856070041656 0.0 0.0 0.0 0.0
3413.0 -0.46429404616355896 -0.3529341518878937 0.0002686278894543648 -8.586794137954712e-05 0.0 0.0 0.0 0.0
3414.0 -0.4708508551120758 -0.34173280000686646 -0.00028937216848134995 0.00013841036707162857 0.0 0.0 0.0 0.0
3415.0 -0.47645068168640137 -0.33071380853652954 -0.00038676057010889053 -0.0002132868394255638 0.0 0.0 0.0 0.0
3416.0 -0.48659563064575195 -0.3207888603210449 -8.639972656965256e-05 -0.00028729159384965897 0.0 0.0 0.0 0.0
3417.0 -0.4948364496231079 -0.30637502670288086 -0.0003540627658367157 -0.00020181480795145035 0.0 0.0 0.0 0.0
3418.0 -0.498353511095047 -0.29458338022232056 2.6477500796318054e-06 -0.0002341531217098236 0.0 0.0 0.0 0.0
3419.0 -0.5091321468353271 -0.2816736698150635 -9.03373584151268e-05 -0.0003410317003726959 0.0 0.0 0.0 0.0
3420.0 -0.5144016742706299 -0.27443239092826843 -0.00022603105753660202 -6.268452852964401e-05 0.0 0.0 0.0 0.0
3421.0 -0.5133713483810425 -0.26359349489212036 -0.00028659403324127197 -0.00013871025294065475 0.0 0.0 0.0 0.0
3422.0 -0.5223182439804077 -0.24785561859607697 -9.407103061676025e-05 -0.0003085201606154442 0.0 0.0 0.0 0.0
3423.0 -0.5338731408119202 -0.23543024063110352 -0.00028043054044246674 -0.00011718738824129105 0.0 0.0 0.0 0.0
3424.0 -0.5328100323677063 -0.2242969274520874 -0.000126776285469532 -0.00015498418360948563 0.0 0.0 0.0 0.0
3425.0 -0.5381165146827698 -0.2129913866519928 -0.0003367271274328232 9.69134271144867e-06 0.0 0.0 0.0 0.0
3426.0 -0.5359549522399902 -0.19995059072971344 -0.00014699064195156097 -0.0001119496300816536 0.0 0.0 0.0 0.0
3427.0 -0.5406200885772705 -0.18875785171985626 -0.00017315614968538284 -9.253527969121933e-05 0.0 0.0 0.0 0.0
3428.0 -0.5458459258079529 -0.17511610686779022 8.153542876243591e-05 -5.212239921092987e-05 0.0 0.0 0.0 0.0
3429.0 -0.555558443069458 -0.15617026388645172 -1.0083429515361786e-05 6.0527585446834564e-05 0.0 0.0 0.0 0.0
3430.0 -0.5452041625976562 -0.1530672162771225 -7.806997746229172e-05 -0.00030086003243923187 0.0 0.0 0.0 0.0
3431.0 -0.5530359745025635 -0.1362389326095581 -0.00018898863345384598 -8.955691009759903e-05 0.0 0.0 0.0 0.0
3432.0 -0.554867684841156 -0.12158936262130737 -4.353467375040054e-05 -0.0004828488454222679 0.0 0.0 0.0 0.0
3433.0 -0.5546889305114746 -0.1100141853094101 -0.00025259703397750854 -0.0005205795168876648 0.0 0.0 0.0 0.0
3434.0 -0.5584807395935059 -0.10014599561691284 -2.276245504617691e-05 -0.00012802518904209137 0.0 0.0 0.0 0.0
3435.0 -0.5567923188209534 -0.08481945097446442 -0.0001790747046470642 -3.137439489364624e-05 0.0 0.0 0.0 0.0
3436.0 -0.555603563785553 -0.0735824704170227 -0.0001780688762664795 4.3334439396858215e-05 0.0 0.0 0.0 0.0
3437.0 -0.5599198937416077 -0.06314052641391754 -2.3020431399345398e-05 -9.687617421150208e-05 0.0 0.0 0.0 0.0
3438.0 -0.5650759935379028 -0.04683281481266022 -0.0001566670835018158 -0.0004655811935663223 0.0 0.0 0.0 0.0
3439.0 -0.5588424801826477 -0.036350324749946594 -3.696419298648834e-05 -9.620655328035355e-05 0.0 0.0 0.0 0.0
3440.0 -0.5609988570213318 -0.018836364150047302 -4.870165139436722e-05 -0.00012215040624141693 0.0 0.0 0.0 0.0
3441.0 -0.5607119798660278 -0.00878414511680603 9.952671825885773e-05 -0.0002529965713620186 0.0 0.0 0.0 0.0
3442.0 -0.5620044469833374 0.003363385796546936 1.7682090401649475e-05 -0.0004220046103000641 0.0 0.0 0.0 0.0
3443.0 -0.5572125911712646 0.013008922338485718 8.793268352746964e-05 -0.0003200443461537361 0.0 0.0 0.0 0.0
3444.0 -0.5534499883651733 0.02797830104827881 -5.2638351917266846e-05 -0.000280182808637619 0.0 0.0 0.0 0.0
3445.0 -0.5541157722473145 0.04101604223251343 9.17697325348854e-05 -5.432404577732086e-05 0.0 0.0 0.0 0.0
3446.0 -0.55301833152771 0.055204927921295166 -3.228895366191864e-05 0.00014120526611804962 0.0 0.0 0.0 0.0
3447.0 -0.54898601770401 0.06234249472618103 -2.8303824365139008e-05 -4.911795258522034e-06 0.0 0.0 0.0 0.0
3448.0 -0.5446373224258423 0.07812429219484329 1.533888280391693e-05 -0.00014562811702489853 0.0 0.0 0.0 0.0
3449.0 -0.5418720245361328 0.08629434555768967 -0.0001242179423570633 -0.0005011707544326782 0.0 0.0 0.0 0.0
3450.0 -0.5402310490608215 0.10028117150068283 1.1662021279335022e-05 -0.00043444521725177765 0.0 0.0 0.0 0.0
3451.0 -0.534382700920105 0.11325289309024811 -0.0002738814800977707 -0.0003651883453130722 0.0 0.0 0.0 0.0
3452.0 -0.5296487808227539 0.12457874417304993 -3.594439476728439e-05 -0.00010811258107423782 0.0 0.0 0.0 0.0
3453.0 -0.5240843296051025 0.13575270771980286 0.00021635368466377258 -0.00023214612156152725 0.0 0.0 0.0 0.0
3454.0 -0.5187783241271973 0.14747050404548645 8.526071906089783e-05 -0.00013877172023057938 0.0 0.0 0.0 0.0
3455.0 -0.5130690336227417 0.16211801767349243 0.00020357780158519745 -0.0001691589131951332 0.0 0.0 0.0 0.0
3456.0 -0.5101606249809265 0.16794630885124207 6.639491766691208e-05 -0.0003477334976196289 0.0 0.0 0.0 0.0
3457.0 -0.5037416219711304 0.18274043500423431 -0.00023117288947105408 -2.5324523448944092e-05 0.0 0.0 0.0 0.0
3458.0 -0.49925386905670166 0.19606660306453705 6.65588304400444e-05 1.2213364243507385e-05 0.0 0.0 0.0 0.0
3459.0 -0.4921063482761383 0.20603974163532257 9.102374315261841e-05 -0.0003674086183309555 0.0 0.0 0.0 0.0
3460.0 -0.48557084798812866 0.21844521164894104 -0.00013777613639831543 -0.00031120050698518753 0.0 0.0 0.0 0.0
3461.0 -0.48053044080734253 0.23030713200569153 0.0001311805099248886 -0.0003088228404521942 0.0 0.0 0.0 0.0
3462.0 -0.4739096760749817 0.24001315236091614 -3.708992153406143e-05 -0.0001337062567472458 0.0 0.0 0.0 0.0
3463.0 -0.46342042088508606 0.25341367721557617 9.029731154441833e-05 -0.00027142465114593506 0.0 0.0 0.0 0.0
3464.0 -0.4565531015396118 0.2605341076850891 9.37245786190033e-05 -0.00032315682619810104 0.0 0.0 0.0 0.0
3465.0 -0.451812207698822 0.26810041069984436 4.134420305490494e-05 -0.00014406442642211914 0.0 0.0 0.0 0.0
3466.0 -0.439083993434906 0.2813326120376587 -8.176080882549286e-05 -8.791126310825348e-05 0.0 0.0 0.0 0.0
3467.0 -0.4338204860687256 0.2913200855255127 3.4320168197155e-05 -0.0001775762066245079 0.0 0.0 0.0 0.0
3468.0 -0.42169177532196045 0.30486899614334106 0.0001254091039299965 -0.00050392746925354 0.0 0.0 0.0 0.0
3469.0 -0.41006168723106384 0.31137800216674805 6.673112511634827e-05 -0.00025049876421689987 0.0 0.0 0.0 0.0
3470.0 -0.4043022394180298 0.3236374855041504 -0.0001918114721775055 -0.0005176039412617683 0.0 0.0 0.0 0.0
3471.0 -0.3927859663963318 0.3345189690589905 5.272962152957916e-05 -0.000842229463160038 0.0 0.0 0.0 0.0
3472.0 -0.38229191303253174 0.34351974725723267 1.2611038982868195e-05 -0.0002068057656288147 0.0 0.0 0.0 0.0
3473.0 -0.3733769953250885 0.3522452712059021 -0.0001336941495537758 -0.00026984047144651413 0.0 0.0 0.0 0.0
3474.0 -0.3626668453216553 0.3552854657173157 -4.0871091187000275e-05 -0.00017192773520946503 0.0 0.0 0.0 0.0
3475.0 -0.3480159640312195 0.3672494888305664 0.00015990808606147766 -0.00016659405082464218 0.0 0.0 0.0 0.0
3476.0 -0.3396914601325989 0.3769491910934448 -0.00018482375890016556 4.30988147854805e-05 0.0 0.0 0.0 0.0
3477.0 -0.32551246881484985 0.38594186305999756 -3.4899450838565826e-05 -0.00015164632350206375 0.0 0.0 0.0 0.0
3478.0 -0.3139415979385376 0.39201638102531433 9.09632071852684e-05 -0.0005608238279819489 0.0 0.0 0.0 0.0
3479.0 -0.29804927110671997 0.40009796619415283 0.0005558384582400322 1.817941665649414e-06 0.0 0.0 0.0 0.0
3480.0 -0.2905787229537964 0.4053804874420166 0.00026106182485818863 1.1827796697616577e-05 0.0 0.0 0.0 0.0
3481.0 -0.27793222665786743 0.4164413511753082 0.0002295197919011116 -0.00041131768375635147 0.0 0.0 0.0 0.0
3482.0 -0.25928521156311035 0.4165288805961609 -0.00013747718185186386 -0.00010754633694887161 0.0 0.0 0.0 0.0
3483.0 -0.25524601340293884 0.4246595501899719 0.00032335519790649414 0.00021275226026773453 0.0 0.0 0.0 0.0
3484.0 -0.2376912534236908 0.42880845069885254 0.00016170181334018707 -0.0004141461104154587 0.0 0.0 0.0 0.0
3485.0 -0.2229524552822113 0.43282485008239746 -0.0002762237563729286 -0.0003705788403749466 0.0 0.0 0.0 0.0
3486.0 -0.20949380099773407 0.44412076473236084 1.2063421308994293e-05 -9.0758316218853e-05 0.0 0.0 0.0 0.0
3487.0 -0.19020526111125946 0.445404589176178 0.00026310980319976807 -0.0004445863887667656 0.0 0.0 0.0 0.0
3488.0 -0.1766839325428009 0.4511711895465851 -0.0001925453543663025 -0.0006169471889734268 0.0 0.0 0.0 0.0
3489.0 -0.1701221466064453 0.4588182866573334 8.407793939113617e-05 -0.0001074736937880516 0.0 0.0 0.0 0.0
3490.0 -0.1471567451953888 0.4548919200897217 0.0005402844399213791 -0.00019322708249092102 0.0 0.0 0.0 0.0
3491.0 -0.13191929459571838 0.46626418828964233 -0.0001711491495370865 -0.00034359749406576157 0.0 0.0 0.0 0.0
3492.0 -0.11705902218818665 0.46437913179397583 2.2104009985923767e-05 -0.0005163205787539482 0.0 0.0 0.0 0.0
3493.0 -0.10284647345542908 0.4624321460723877 0.00013003498315811157 -0.00039477087557315826 0.0 0.0 0.0 0.0
3494.0 -0.08493784070014954 0.4645709991455078 4.7946348786354065e-05 -0.0003437325358390808 0.0 0.0 0.0 0.0
3495.0 -0.06626811623573303 0.4665141701698303 0.00034021586179733276 -4.41037118434906e-05 0.0 0.0 0.0 0.0
3496.0 -0.05615973472595215 0.47212013602256775 0.00016250181943178177 -4.7480687499046326e-05 0.0 0.0 0.0 0.0
3497.0 -0.03849336504936218 0.46911361813545227 -0.0002658683806657791 -0.00020016077905893326 0.0 0.0 0.0 0.0
3498.0 -0.022804349660873413 0.46488991379737854 7.121078670024872e-05 -0.0003235042095184326 0.0 0.0 0.0 0.0
3499.0 0.0006520748138427734 0.4653277099132538 9.51625406742096e-06 -0.0003365287557244301 0.0 0.0 0.0 0.0
3500.0 0.010969847440719604 0.45999419689178467 -7.916335016489029e-05 -2.043880522251129e-05 0.0 0.0 0.0 0.0
