!Created with skrf (http://scikit-rf.org).
# MHz S RI R 50.0 
!freq ReS11 ImS11 ReS21 ImS21 ReS12 ImS12 ReS22 ImS22
3400.0 -0.10547083616256714 0.06511443853378296 -0.264923095703125 0.3275912404060364 1.0 0.0 0.0 0.0
3401.0 -0.09982985258102417 0.06720222532749176 -0.2529964745044708 0.3208017349243164 1.0 0.0 0.0 0.0
3402.0 -0.09691059589385986 0.06363387405872345 -0.24956756830215454 0.3290071189403534 1.0 0.0 0.0 0.0
3403.0 -0.0923258364200592 0.0654747486114502 -0.24133914709091187 0.3304305076599121 1.0 0.0 0.0 0.0
3404.0 -0.08836013078689575 0.06266003847122192 -0.2323625534772873 0.3336683213710785 1.0 0.0 0.0 0.0
3405.0 -0.08271804451942444 0.05987681448459625 -0.22615140676498413 0.3404037058353424 1.0 0.0 0.0 0.0
3406.0 -0.07990515232086182 0.06087137758731842 -0.21167820692062378 0.34337666630744934 1.0 0.0 0.0 0.0
3407.0 -0.07609331607818604 0.053526610136032104 -0.20857518911361694 0.3488699793815613 1.0 0.0 0.0 0.0
3408.0 -0.07182812690734863 0.05445301532745361 -0.19651131331920624 0.35642269253730774 1.0 0.0 0.0 0.0
3409.0 -0.06825947761535645 0.04876098036766052 -0.18709029257297516 0.35770338773727417 1.0 0.0 0.0 0.0
3410.0 -0.06231769919395447 0.04973165690898895 -0.1829521507024765 0.3597725033760071 1.0 0.0 0.0 0.0
3411.0 -0.056254178285598755 0.04625214636325836 -0.17214953899383545 0.3647637963294983 1.0 0.0 0.0 0.0
3412.0 -0.05607885122299194 0.04554298520088196 -0.16447366774082184 0.36438992619514465 1.0 0.0 0.0 0.0
3413.0 -0.054256588220596313 0.035057052969932556 -0.1551779955625534 0.36967724561691284 1.0 0.0 0.0 0.0
3414.0 -0.05076608061790466 0.034483328461647034 -0.14786387979984283 0.3706469237804413 1.0 0.0 0.0 0.0
3415.0 -0.04489341378211975 0.029167696833610535 -0.14577685296535492 0.3721642792224884 1.0 0.0 0.0 0.0
3416.0 -0.045789510011672974 0.02777649462223053 -0.13553819060325623 0.3734250068664551 1.0 0.0 0.0 0.0
3417.0 -0.04351848363876343 0.018177837133407593 -0.11748236417770386 0.3756467401981354 1.0 0.0 0.0 0.0
3418.0 -0.03672143816947937 0.018001258373260498 -0.12163995206356049 0.3793090283870697 1.0 0.0 0.0 0.0
3419.0 -0.040513843297958374 0.015114009380340576 -0.1052919551730156 0.37740281224250793 1.0 0.0 0.0 0.0
3420.0 -0.031779974699020386 0.009295150637626648 -0.10258236527442932 0.37980595231056213 1.0 0.0 0.0 0.0
3421.0 -0.03501608967781067 0.0052286237478256226 -0.09559490531682968 0.3822214901447296 1.0 0.0 0.0 0.0
3422.0 -0.032480329275131226 -0.0008168667554855347 -0.08469624817371368 0.38260459899902344 1.0 0.0 0.0 0.0
3423.0 -0.02722993493080139 -0.006333142518997192 -0.07527345418930054 0.38089191913604736 1.0 0.0 0.0 0.0
3424.0 -0.02925509214401245 -0.009404987096786499 -0.06961232423782349 0.38184863328933716 1.0 0.0 0.0 0.0
3425.0 -0.02869391441345215 -0.016182243824005127 -0.06462191790342331 0.3843575417995453 1.0 0.0 0.0 0.0
3426.0 -0.02950829267501831 -0.014199048280715942 -0.05346804857254028 0.38251614570617676 1.0 0.0 0.0 0.0
3427.0 -0.025819838047027588 -0.019480809569358826 -0.04356207698583603 0.3799838721752167 1.0 0.0 0.0 0.0
3428.0 -0.02885720133781433 -0.029743045568466187 -0.035490162670612335 0.3830260932445526 1.0 0.0 0.0 0.0
3429.0 -0.0317307710647583 -0.03147837519645691 -0.026224540546536446 0.3814984858036041 1.0 0.0 0.0 0.0
3430.0 -0.03076481819152832 -0.036716848611831665 -0.021330753341317177 0.38143405318260193 1.0 0.0 0.0 0.0
3431.0 -0.030033588409423828 -0.039156556129455566 -0.005736222490668297 0.382659375667572 1.0 0.0 0.0 0.0
3432.0 -0.03009822964668274 -0.03711742162704468 -0.004397109150886536 0.3784281015396118 1.0 0.0 0.0 0.0
3433.0 -0.0338301956653595 -0.0457599014043808 0.004968131892383099 0.3752037584781647 1.0 0.0 0.0 0.0
3434.0 -0.03578454256057739 -0.051896870136260986 0.014218603260815144 0.37672603130340576 1.0 0.0 0.0 0.0
3435.0 -0.03174290060997009 -0.05505998432636261 0.01997346617281437 0.37812304496765137 1.0 0.0 0.0 0.0
3436.0 -0.030963748693466187 -0.0580432265996933 0.023558758199214935 0.37261298298835754 1.0 0.0 0.0 0.0
3437.0 -0.040982574224472046 -0.06752243638038635 0.041503626853227615 0.3707457482814789 1.0 0.0 0.0 0.0
3438.0 -0.04001134634017944 -0.062384262681007385 0.04193377122282982 0.3682973384857178 1.0 0.0 0.0 0.0
3439.0 -0.04671737551689148 -0.0690150260925293 0.05006176233291626 0.36430180072784424 1.0 0.0 0.0 0.0
3440.0 -0.03946521878242493 -0.07203617691993713 0.05617981031537056 0.3630201518535614 1.0 0.0 0.0 0.0
3441.0 -0.04559600353240967 -0.07833652198314667 0.06234359368681908 0.36401069164276123 1.0 0.0 0.0 0.0
3442.0 -0.049267977476119995 -0.07408803701400757 0.07132908701896667 0.3554597496986389 1.0 0.0 0.0 0.0
3443.0 -0.053059518337249756 -0.08295087516307831 0.07969791442155838 0.35633009672164917 1.0 0.0 0.0 0.0
3444.0 -0.055252254009246826 -0.07949668169021606 0.08387745916843414 0.3547601103782654 1.0 0.0 0.0 0.0
3445.0 -0.06171518564224243 -0.08525161445140839 0.08964044600725174 0.3465862572193146 1.0 0.0 0.0 0.0
3446.0 -0.06289798021316528 -0.08638574182987213 0.09567900747060776 0.3470454514026642 1.0 0.0 0.0 0.0
3447.0 -0.06995081901550293 -0.09310419857501984 0.10746832191944122 0.33871105313301086 1.0 0.0 0.0 0.0
3448.0 -0.06586545705795288 -0.08605548739433289 0.11083005368709564 0.33796584606170654 1.0 0.0 0.0 0.0
3449.0 -0.07058563828468323 -0.08990880846977234 0.11696139723062515 0.33475032448768616 1.0 0.0 0.0 0.0
3450.0 -0.08208370208740234 -0.09494815766811371 0.12516824901103973 0.33352264761924744 1.0 0.0 0.0 0.0
3451.0 -0.08533412218093872 -0.099447101354599 0.13383972644805908 0.32822540402412415 1.0 0.0 0.0 0.0
3452.0 -0.0795941948890686 -0.09410300850868225 0.13582541048526764 0.32480016350746155 1.0 0.0 0.0 0.0
3453.0 -0.08808749914169312 -0.09432902932167053 0.14207787811756134 0.32160335779190063 1.0 0.0 0.0 0.0
3454.0 -0.08926451206207275 -0.09659722447395325 0.1536550521850586 0.3157179653644562 1.0 0.0 0.0 0.0
3455.0 -0.09461382031440735 -0.0955580472946167 0.15462058782577515 0.3108590543270111 1.0 0.0 0.0 0.0
3456.0 -0.10064610838890076 -0.10555686056613922 0.16366639733314514 0.3041706383228302 1.0 0.0 0.0 0.0
3457.0 -0.09603673219680786 -0.09291394054889679 0.16503025591373444 0.30422794818878174 1.0 0.0 0.0 0.0
3458.0 -0.1062932014465332 -0.09770356118679047 0.1730348765850067 0.29829010367393494 1.0 0.0 0.0 0.0
3459.0 -0.1041175127029419 -0.09615492820739746 0.17380930483341217 0.2973116934299469 1.0 0.0 0.0 0.0
3460.0 -0.11430874466896057 -0.09688828885555267 0.1831250637769699 0.2887464165687561 1.0 0.0 0.0 0.0
3461.0 -0.11751893162727356 -0.09253346920013428 0.18738994002342224 0.27912387251853943 1.0 0.0 0.0 0.0
3462.0 -0.11781042814254761 -0.09114107489585876 0.1910364329814911 0.28271952271461487 1.0 0.0 0.0 0.0
3463.0 -0.12062814831733704 -0.08930885791778564 0.19140717387199402 0.27194109559059143 1.0 0.0 0.0 0.0
3464.0 -0.12371420860290527 -0.09038203954696655 0.20035582780838013 0.2703079581260681 1.0 0.0 0.0 0.0
3465.0 -0.12863796949386597 -0.09053626656532288 0.20623353123664856 0.26586025953292847 1.0 0.0 0.0 0.0
3466.0 -0.13042762875556946 -0.09099489450454712 0.21620629727840424 0.2554853558540344 1.0 0.0 0.0 0.0
3467.0 -0.1345173418521881 -0.0897623598575592 0.21298901736736298 0.25477275252342224 1.0 0.0 0.0 0.0
3468.0 -0.13730084896087646 -0.08580964803695679 0.21794496476650238 0.2515448033809662 1.0 0.0 0.0 0.0
3469.0 -0.14045390486717224 -0.0851668119430542 0.22023123502731323 0.24372489750385284 1.0 0.0 0.0 0.0
3470.0 -0.13760146498680115 -0.08116845786571503 0.2275814414024353 0.2399490624666214 1.0 0.0 0.0 0.0
3471.0 -0.14287495613098145 -0.07862696051597595 0.23138472437858582 0.23512548208236694 1.0 0.0 0.0 0.0
3472.0 -0.14018338918685913 -0.07675589621067047 0.23510152101516724 0.2291025072336197 1.0 0.0 0.0 0.0
3473.0 -0.14428070187568665 -0.07447035610675812 0.2378995716571808 0.2231256067752838 1.0 0.0 0.0 0.0
3474.0 -0.15006619691848755 -0.07272884249687195 0.24270354211330414 0.21906538307666779 1.0 0.0 0.0 0.0
3475.0 -0.1440969705581665 -0.06855945289134979 0.24331620335578918 0.21387456357479095 1.0 0.0 0.0 0.0
3476.0 -0.1548890918493271 -0.06833881139755249 0.24801704287528992 0.20752763748168945 1.0 0.0 0.0 0.0
3477.0 -0.15105986595153809 -0.06400489807128906 0.25282952189445496 0.20291352272033691 1.0 0.0 0.0 0.0
3478.0 -0.15317976474761963 -0.06095850467681885 0.2544582486152649 0.19590556621551514 1.0 0.0 0.0 0.0
3479.0 -0.15684108436107635 -0.06030911207199097 0.25927770137786865 0.1878877729177475 1.0 0.0 0.0 0.0
3480.0 -0.15710167586803436 -0.05776524543762207 0.2555010914802551 0.18877936899662018 1.0 0.0 0.0 0.0
3481.0 -0.15594813227653503 -0.05350247025489807 0.2648698687553406 0.1780756562948227 1.0 0.0 0.0 0.0
3482.0 -0.160625621676445 -0.052848219871520996 0.26400429010391235 0.17467008531093597 1.0 0.0 0.0 0.0
3483.0 -0.15660753846168518 -0.050060614943504333 0.2705836296081543 0.16726534068584442 1.0 0.0 0.0 0.0
3484.0 -0.15718114376068115 -0.046527132391929626 0.2722008526325226 0.1611725389957428 1.0 0.0 0.0 0.0
3485.0 -0.16039419174194336 -0.03949548304080963 0.2745935022830963 0.1555691808462143 1.0 0.0 0.0 0.0
3486.0 -0.16020695865154266 -0.045323118567466736 0.278152197599411 0.14948460459709167 1.0 0.0 0.0 0.0
3487.0 -0.15870562195777893 -0.03588548302650452 0.27751538157463074 0.14620341360569 1.0 0.0 0.0 0.0
3488.0 -0.16427062451839447 -0.03540278971195221 0.28204450011253357 0.13534903526306152 1.0 0.0 0.0 0.0
3489.0 -0.16212186217308044 -0.03372405469417572 0.2829570770263672 0.13394419848918915 1.0 0.0 0.0 0.0
3490.0 -0.15948712825775146 -0.02957737445831299 0.28231748938560486 0.12602797150611877 1.0 0.0 0.0 0.0
3491.0 -0.15882015228271484 -0.030711114406585693 0.28659215569496155 0.11886288225650787 1.0 0.0 0.0 0.0
3492.0 -0.1580182909965515 -0.024786874651908875 0.2896023988723755 0.11521539837121964 1.0 0.0 0.0 0.0
3493.0 -0.15425658226013184 -0.021457403898239136 0.28787994384765625 0.11312419176101685 1.0 0.0 0.0 0.0
3494.0 -0.1567305624485016 -0.022512659430503845 0.2924463748931885 0.1049523800611496 1.0 0.0 0.0 0.0
3495.0 -0.15838176012039185 -0.01851394772529602 0.2917878031730652 0.095480777323246 1.0 0.0 0.0 0.0
3496.0 -0.15581250190734863 -0.013595432043075562 0.2932434380054474 0.08917942643165588 1.0 0.0 0.0 0.0
3497.0 -0.15247899293899536 -0.012013018131256104 0.29433348774909973 0.0869826003909111 1.0 0.0 0.0 0.0
3498.0 -0.15512380003929138 -0.008030995726585388 0.2962286174297333 0.08040110766887665 1.0 0.0 0.0 0.0
3499.0 -0.1487354338169098 -0.011753320693969727 0.2976956367492676 0.07325592637062073 1.0 0.0 0.0 0.0
3500.0 -0.14810654520988464 -0.0088433176279068 0.2985915541648865 0.06391802430152893 1.0 0.0 0.0 0.0
